!Keysight Technologies,E5061B,MY49709559,B.05.06
!Date: Thu Apr 07 18:59:30 2022
!Data & Calibration Information:
!Freq	S11:SOLT2(ON)	S21:SOLT2(ON)	S12:SOLT2(ON)	S22:SOLT2(ON)
# Hz S RI R 50
300000.000	8.669547e-001	2.269239e-001	4.637760e-001	5.843605e-002	4.549766e-001	5.278363e-002	-8.735627e-001	1.943762e-002
309709.710	8.660775e-001	2.176195e-001	4.627932e-001	5.562036e-002	4.570133e-001	5.118205e-002	-8.738616e-001	1.896815e-002
319419.419	8.676817e-001	2.102473e-001	4.635214e-001	5.368440e-002	4.582374e-001	4.961405e-002	-8.746478e-001	1.903132e-002
329129.129	8.677242e-001	2.040187e-001	4.635830e-001	5.194065e-002	4.592152e-001	4.801921e-002	-8.752171e-001	1.831066e-002
338838.839	8.694331e-001	1.964865e-001	4.639835e-001	4.973308e-002	4.597066e-001	4.641056e-002	-8.750272e-001	1.920031e-002
348548.549	8.698561e-001	1.905778e-001	4.642602e-001	4.819664e-002	4.604444e-001	4.504292e-002	-8.753386e-001	1.866638e-002
358258.258	8.711807e-001	1.842421e-001	4.643051e-001	4.625353e-002	4.606098e-001	4.383329e-002	-8.743214e-001	1.797186e-002
367967.968	8.718845e-001	1.787613e-001	4.644356e-001	4.502985e-002	4.612363e-001	4.218351e-002	-8.747505e-001	1.819356e-002
377677.678	8.728650e-001	1.730835e-001	4.646078e-001	4.348472e-002	4.621256e-001	4.099971e-002	-8.754014e-001	1.863517e-002
387387.387	8.731982e-001	1.682692e-001	4.650894e-001	4.207260e-002	4.618711e-001	3.980441e-002	-8.747443e-001	1.832685e-002
397097.097	8.735504e-001	1.642730e-001	4.653237e-001	4.106701e-002	4.626564e-001	3.879445e-002	-8.757030e-001	1.749816e-002
406806.807	8.749248e-001	1.590157e-001	4.656160e-001	3.959089e-002	4.627825e-001	3.715299e-002	-8.749802e-001	1.819266e-002
416516.517	8.749029e-001	1.544599e-001	4.655718e-001	3.838671e-002	4.630217e-001	3.625680e-002	-8.752811e-001	1.804890e-002
426226.226	8.755201e-001	1.501869e-001	4.659732e-001	3.711560e-002	4.630629e-001	3.511137e-002	-8.748014e-001	1.769454e-002
435935.936	8.764227e-001	1.462811e-001	4.659427e-001	3.645026e-002	4.631568e-001	3.418733e-002	-8.747131e-001	1.776260e-002
445645.646	8.764521e-001	1.434293e-001	4.660270e-001	3.568471e-002	4.634483e-001	3.345392e-002	-8.749751e-001	1.769004e-002
455355.355	8.767896e-001	1.396455e-001	4.663973e-001	3.497535e-002	4.638338e-001	3.242910e-002	-8.750322e-001	1.776548e-002
465065.065	8.768664e-001	1.357458e-001	4.662068e-001	3.346081e-002	4.642641e-001	3.127784e-002	-8.751384e-001	1.830828e-002
474774.775	8.775900e-001	1.323394e-001	4.663121e-001	3.248772e-002	4.641122e-001	3.042130e-002	-8.747607e-001	1.798512e-002
484484.484	8.779027e-001	1.291542e-001	4.664778e-001	3.164283e-002	4.642047e-001	2.984699e-002	-8.758753e-001	1.767243e-002
494194.194	8.789080e-001	1.261167e-001	4.669337e-001	3.064510e-002	4.643384e-001	2.897716e-002	-8.757225e-001	1.794154e-002
503903.904	8.791098e-001	1.232402e-001	4.669657e-001	2.980385e-002	4.645106e-001	2.862060e-002	-8.758692e-001	1.832043e-002
513613.614	8.793569e-001	1.203371e-001	4.673899e-001	2.884065e-002	4.645486e-001	2.763395e-002	-8.757282e-001	1.820011e-002
523323.323	8.794847e-001	1.171527e-001	4.669422e-001	2.828800e-002	4.647563e-001	2.640473e-002	-8.752663e-001	1.816368e-002
533033.033	8.798859e-001	1.143152e-001	4.672186e-001	2.714502e-002	4.645364e-001	2.621419e-002	-8.750031e-001	1.772145e-002
542742.743	8.800360e-001	1.114939e-001	4.673114e-001	2.630322e-002	4.649433e-001	2.531475e-002	-8.752624e-001	1.861002e-002
552452.452	8.797649e-001	1.090030e-001	4.668956e-001	2.570231e-002	4.649571e-001	2.451694e-002	-8.748116e-001	1.852331e-002
562162.162	8.806006e-001	1.065026e-001	4.673224e-001	2.497951e-002	4.647811e-001	2.340897e-002	-8.744608e-001	1.849204e-002
571871.872	8.810336e-001	1.038376e-001	4.673938e-001	2.394943e-002	4.650189e-001	2.301765e-002	-8.749112e-001	1.882582e-002
581581.582	8.814652e-001	1.016870e-001	4.674687e-001	2.352571e-002	4.650545e-001	2.294919e-002	-8.745711e-001	1.818723e-002
591291.291	8.814381e-001	9.883966e-002	4.675099e-001	2.259253e-002	4.649582e-001	2.225078e-002	-8.744619e-001	1.807541e-002
601001.001	8.816364e-001	9.746362e-002	4.675732e-001	2.237061e-002	4.648977e-001	2.151395e-002	-8.743997e-001	1.875272e-002
610710.711	8.811543e-001	9.449785e-002	4.672540e-001	2.148224e-002	4.649598e-001	2.103263e-002	-8.744734e-001	1.833419e-002
620420.420	8.815554e-001	9.265187e-002	4.674292e-001	2.102913e-002	4.652652e-001	2.034969e-002	-8.748267e-001	1.864346e-002
630130.130	8.820704e-001	9.026952e-002	4.675666e-001	2.048504e-002	4.653052e-001	1.965879e-002	-8.750248e-001	1.893237e-002
639839.840	8.819274e-001	8.918539e-002	4.674894e-001	2.042949e-002	4.655939e-001	1.914196e-002	-8.747792e-001	1.913961e-002
649549.550	8.822509e-001	8.681487e-002	4.677877e-001	1.942491e-002	4.653329e-001	1.831422e-002	-8.744584e-001	1.972599e-002
659259.259	8.823790e-001	8.513920e-002	4.679308e-001	1.890108e-002	4.658865e-001	1.811777e-002	-8.747704e-001	1.898039e-002
668968.969	8.822716e-001	8.368109e-002	4.675666e-001	1.851487e-002	4.659102e-001	1.754872e-002	-8.748426e-001	1.884920e-002
678678.679	8.819607e-001	8.202927e-002	4.675854e-001	1.811195e-002	4.653309e-001	1.718849e-002	-8.742690e-001	1.925255e-002
688388.388	8.825754e-001	8.009286e-002	4.678218e-001	1.752088e-002	4.656903e-001	1.647219e-002	-8.747009e-001	1.942543e-002
698098.098	8.822069e-001	7.878985e-002	4.676992e-001	1.732709e-002	4.659233e-001	1.656507e-002	-8.749023e-001	1.874210e-002
707807.808	8.826633e-001	7.638788e-002	4.679112e-001	1.621146e-002	4.659108e-001	1.587936e-002	-8.745616e-001	1.971358e-002
717517.518	8.820883e-001	7.470914e-002	4.678571e-001	1.611935e-002	4.655965e-001	1.564795e-002	-8.742639e-001	1.898638e-002
727227.227	8.827684e-001	7.306224e-002	4.677026e-001	1.515755e-002	4.656275e-001	1.522377e-002	-8.742907e-001	1.926854e-002
736936.937	8.823504e-001	7.099371e-002	4.676454e-001	1.474810e-002	4.659170e-001	1.507914e-002	-8.745716e-001	1.869459e-002
746646.647	8.833249e-001	6.969372e-002	4.677794e-001	1.433454e-002	4.658188e-001	1.427825e-002	-8.741581e-001	1.927125e-002
756356.356	8.830319e-001	6.869825e-002	4.678436e-001	1.400911e-002	4.656924e-001	1.382019e-002	-8.741823e-001	1.960037e-002
766066.066	8.832286e-001	6.752403e-002	4.680814e-001	1.383345e-002	4.658448e-001	1.345233e-002	-8.743298e-001	1.962222e-002
775775.776	8.825931e-001	6.596018e-002	4.677331e-001	1.353757e-002	4.659985e-001	1.299961e-002	-8.747335e-001	1.974862e-002
785485.485	8.830954e-001	6.395838e-002	4.682874e-001	1.279685e-002	4.657460e-001	1.251832e-002	-8.739169e-001	2.005390e-002
795195.195	8.836551e-001	6.238049e-002	4.681685e-001	1.222146e-002	4.658738e-001	1.246332e-002	-8.740927e-001	1.947808e-002
804904.905	8.834799e-001	6.173783e-002	4.682178e-001	1.214065e-002	4.658757e-001	1.202449e-002	-8.740877e-001	1.967725e-002
814614.615	8.835883e-001	6.028512e-002	4.682997e-001	1.166445e-002	4.657614e-001	1.147889e-002	-8.740973e-001	2.015731e-002
824324.324	8.825407e-001	5.926700e-002	4.679672e-001	1.149262e-002	4.661821e-001	1.084758e-002	-8.740215e-001	2.008531e-002
834034.034	8.835911e-001	5.746643e-002	4.684443e-001	1.077769e-002	4.659882e-001	1.070551e-002	-8.737360e-001	2.059534e-002
843743.744	8.832796e-001	5.609797e-002	4.680648e-001	1.018722e-002	4.660222e-001	1.020704e-002	-8.741326e-001	2.065605e-002
853453.453	8.833086e-001	5.499114e-002	4.681259e-001	9.935493e-003	4.660889e-001	1.023578e-002	-8.743166e-001	2.060996e-002
863163.163	8.829567e-001	5.391901e-002	4.678626e-001	9.882276e-003	4.657181e-001	9.508155e-003	-8.737365e-001	2.094753e-002
872872.873	8.835997e-001	5.222499e-002	4.682895e-001	8.997036e-003	4.660092e-001	9.216201e-003	-8.739934e-001	2.095686e-002
882582.583	8.835940e-001	5.121288e-002	4.681666e-001	9.025669e-003	4.659556e-001	8.777566e-003	-8.741949e-001	2.134656e-002
892292.292	8.835295e-001	5.071619e-002	4.682131e-001	9.162228e-003	4.660921e-001	8.747606e-003	-8.739888e-001	2.130382e-002
902002.002	8.830352e-001	4.918113e-002	4.679995e-001	8.331169e-003	4.659101e-001	8.501284e-003	-8.740274e-001	2.111088e-002
911711.712	8.825584e-001	4.809209e-002	4.678577e-001	7.624300e-003	4.659283e-001	8.362432e-003	-8.739763e-001	2.138185e-002
921421.421	8.835934e-001	4.734556e-002	4.682358e-001	7.752901e-003	4.662265e-001	7.489119e-003	-8.742971e-001	2.189763e-002
931131.131	8.828338e-001	4.579476e-002	4.678427e-001	7.104594e-003	4.660737e-001	7.528884e-003	-8.737808e-001	2.168375e-002
940840.841	8.829347e-001	4.512395e-002	4.678886e-001	6.984062e-003	4.661064e-001	7.166324e-003	-8.739625e-001	2.159397e-002
950550.551	8.832938e-001	4.338980e-002	4.679632e-001	6.267843e-003	4.659644e-001	6.915165e-003	-8.737175e-001	2.188285e-002
960260.260	8.832057e-001	4.259590e-002	4.678503e-001	6.288518e-003	4.659835e-001	6.287481e-003	-8.738509e-001	2.249132e-002
969969.970	8.829072e-001	4.180386e-002	4.678370e-001	5.778971e-003	4.661405e-001	6.338774e-003	-8.736555e-001	2.237159e-002
979679.680	8.832144e-001	4.067197e-002	4.679375e-001	5.312119e-003	4.658993e-001	6.245820e-003	-8.732727e-001	2.203781e-002
989389.389	8.834039e-001	4.009056e-002	4.681480e-001	5.390591e-003	4.663084e-001	5.245624e-003	-8.737769e-001	2.288795e-002
999099.099	8.834795e-001	3.927635e-002	4.679747e-001	5.057190e-003	4.660771e-001	5.509238e-003	-8.734906e-001	2.277431e-002
1008808.809	8.831400e-001	3.790486e-002	4.679594e-001	4.854129e-003	4.658480e-001	5.254963e-003	-8.734000e-001	2.263017e-002
1018518.519	8.829693e-001	3.707301e-002	4.679378e-001	4.573732e-003	4.662692e-001	4.925707e-003	-8.735297e-001	2.275692e-002
1028228.228	8.835914e-001	3.597572e-002	4.678772e-001	4.249225e-003	4.662074e-001	4.437418e-003	-8.734554e-001	2.320709e-002
1037937.938	8.833622e-001	3.536507e-002	4.680443e-001	4.120529e-003	4.661710e-001	4.292020e-003	-8.733129e-001	2.347523e-002
1047647.648	8.835897e-001	3.382557e-002	4.683126e-001	3.644366e-003	4.661687e-001	3.732758e-003	-8.735814e-001	2.392907e-002
1057357.357	8.834789e-001	3.325549e-002	4.681111e-001	3.498583e-003	4.661662e-001	3.256410e-003	-8.733843e-001	2.426779e-002
1067067.067	8.837774e-001	3.283639e-002	4.681596e-001	3.326023e-003	4.661852e-001	3.328088e-003	-8.734090e-001	2.370900e-002
1076776.777	8.833929e-001	3.180466e-002	4.678578e-001	3.166851e-003	4.658263e-001	2.938983e-003	-8.731543e-001	2.414422e-002
1086486.486	8.835681e-001	3.090709e-002	4.679169e-001	2.621999e-003	4.660551e-001	2.837190e-003	-8.731678e-001	2.422476e-002
1096196.196	8.837663e-001	2.995391e-002	4.683651e-001	2.561529e-003	4.659270e-001	2.570151e-003	-8.731508e-001	2.427207e-002
1105905.906	8.830398e-001	2.939175e-002	4.679989e-001	2.199437e-003	4.661444e-001	2.300438e-003	-8.735839e-001	2.442540e-002
1115615.616	8.831660e-001	2.839599e-002	4.676722e-001	1.866505e-003	4.661047e-001	2.073645e-003	-8.732086e-001	2.438015e-002
1125325.325	8.829911e-001	2.740711e-002	4.675289e-001	1.739576e-003	4.659097e-001	1.669016e-003	-8.728226e-001	2.456005e-002
1135035.035	8.828446e-001	2.715299e-002	4.675956e-001	1.810672e-003	4.653894e-001	1.127935e-003	-8.722791e-001	2.552113e-002
1144744.745	8.830004e-001	2.624860e-002	4.679297e-001	1.374333e-003	4.656421e-001	1.283666e-003	-8.729999e-001	2.479960e-002
1154454.454	8.829577e-001	2.509468e-002	4.677651e-001	8.755449e-004	4.657416e-001	1.427554e-003	-8.726651e-001	2.459800e-002
1164164.164	8.832820e-001	2.453896e-002	4.680965e-001	7.478897e-004	4.657380e-001	1.143687e-003	-8.728647e-001	2.486843e-002
1173873.874	8.834808e-001	2.328754e-002	4.681889e-001	3.513137e-004	4.659744e-001	9.572809e-004	-8.728030e-001	2.520828e-002
1183583.584	8.826733e-001	2.323492e-002	4.675770e-001	4.078079e-004	4.658603e-001	2.881894e-004	-8.724029e-001	2.533752e-002
1193293.293	8.832252e-001	2.172974e-002	4.678874e-001	-1.814369e-004	4.657330e-001	3.678446e-004	-8.727200e-001	2.515353e-002
1203003.003	8.831703e-001	2.163730e-002	4.678314e-001	-2.635985e-004	4.659029e-001	2.302817e-005	-8.722864e-001	2.550915e-002
1212712.713	8.832661e-001	2.088759e-002	4.678728e-001	-5.237854e-004	4.657859e-001	4.448171e-005	-8.722437e-001	2.549320e-002
1222422.422	8.825196e-001	2.057459e-002	4.676136e-001	-6.141109e-004	4.656504e-001	-4.607328e-004	-8.721146e-001	2.578650e-002
1232132.132	8.831997e-001	1.918691e-002	4.679543e-001	-9.032578e-004	4.658299e-001	-6.926536e-004	-8.726592e-001	2.586959e-002
1241841.842	8.834570e-001	1.904362e-002	4.681226e-001	-1.028792e-003	4.656402e-001	-7.117741e-004	-8.723325e-001	2.561329e-002
1251551.552	8.827118e-001	1.815100e-002	4.676574e-001	-1.008507e-003	4.658287e-001	-1.364552e-003	-8.724995e-001	2.674422e-002
1261261.261	8.837005e-001	1.691444e-002	4.680143e-001	-1.711624e-003	4.654857e-001	-1.502573e-003	-8.720811e-001	2.657896e-002
1270970.971	8.838237e-001	1.610463e-002	4.679227e-001	-1.879809e-003	4.657390e-001	-1.515326e-003	-8.724197e-001	2.654382e-002
1280680.681	8.832396e-001	1.557691e-002	4.678725e-001	-1.786077e-003	4.658294e-001	-1.984346e-003	-8.724554e-001	2.686485e-002
1290390.390	8.831553e-001	1.504871e-002	4.676735e-001	-1.837575e-003	4.658701e-001	-2.281405e-003	-8.723461e-001	2.704165e-002
1300100.100	8.828232e-001	1.423614e-002	4.676628e-001	-2.373634e-003	4.657704e-001	-2.254440e-003	-8.721712e-001	2.703566e-002
1309809.810	8.827709e-001	1.375338e-002	4.678480e-001	-2.758286e-003	4.657645e-001	-2.444741e-003	-8.718917e-001	2.689353e-002
1319519.520	8.831664e-001	1.278609e-002	4.680021e-001	-2.851086e-003	4.653308e-001	-2.720370e-003	-8.717914e-001	2.734409e-002
1329229.229	8.832247e-001	1.256269e-002	4.681035e-001	-2.768011e-003	4.658810e-001	-2.808352e-003	-8.722130e-001	2.729806e-002
1338938.939	8.828865e-001	1.201836e-002	4.677445e-001	-3.150123e-003	4.658200e-001	-3.149858e-003	-8.722302e-001	2.745724e-002
1348648.649	8.836275e-001	1.131705e-002	4.682675e-001	-3.516334e-003	4.658095e-001	-3.217447e-003	-8.718481e-001	2.764234e-002
1358358.358	8.832533e-001	1.088838e-002	4.678430e-001	-3.552351e-003	4.657336e-001	-3.606875e-003	-8.718554e-001	2.801983e-002
1368068.068	8.830589e-001	9.893278e-003	4.678921e-001	-3.878567e-003	4.653497e-001	-3.846741e-003	-8.714146e-001	2.812200e-002
1377777.778	8.831577e-001	8.924154e-003	4.680088e-001	-4.220748e-003	4.654802e-001	-3.869790e-003	-8.717488e-001	2.775946e-002
1387487.487	8.832519e-001	8.423306e-003	4.677535e-001	-4.506645e-003	4.657356e-001	-4.307816e-003	-8.717678e-001	2.808266e-002
1397197.197	8.833230e-001	7.978150e-003	4.676009e-001	-4.359525e-003	4.658780e-001	-4.370747e-003	-8.716874e-001	2.845732e-002
1406906.907	8.827514e-001	7.239465e-003	4.676998e-001	-4.870536e-003	4.656906e-001	-4.328247e-003	-8.714340e-001	2.790504e-002
1416616.617	8.830365e-001	6.652945e-003	4.676912e-001	-4.968850e-003	4.656474e-001	-4.480797e-003	-8.713866e-001	2.805174e-002
1426326.326	8.835512e-001	6.180994e-003	4.676345e-001	-4.935322e-003	4.655157e-001	-4.542888e-003	-8.712195e-001	2.816627e-002
1436036.036	8.834085e-001	5.505768e-003	4.679786e-001	-5.384616e-003	4.655473e-001	-4.810808e-003	-8.712469e-001	2.832822e-002
1445745.746	8.834670e-001	4.771591e-003	4.680415e-001	-5.368053e-003	4.655646e-001	-5.023463e-003	-8.714891e-001	2.860723e-002
1455455.455	8.832169e-001	3.843157e-003	4.676741e-001	-6.031222e-003	4.655491e-001	-5.215960e-003	-8.709752e-001	2.864509e-002
1465165.165	8.837402e-001	3.281875e-003	4.679434e-001	-6.148367e-003	4.659185e-001	-5.410245e-003	-8.716024e-001	2.855167e-002
1474874.875	8.837598e-001	2.465397e-003	4.679116e-001	-6.366549e-003	4.655113e-001	-5.666758e-003	-8.715068e-001	2.890997e-002
1484584.585	8.834096e-001	2.091427e-003	4.677480e-001	-6.412454e-003	4.655998e-001	-5.405021e-003	-8.712007e-001	2.822080e-002
1494294.294	8.830373e-001	1.947861e-003	4.675243e-001	-6.547576e-003	4.656257e-001	-5.917575e-003	-8.716146e-001	2.886535e-002
1504004.004	8.827525e-001	9.962528e-004	4.673405e-001	-6.899881e-003	4.661184e-001	-6.239126e-003	-8.719812e-001	2.965196e-002
1513713.714	8.828810e-001	3.213816e-004	4.674932e-001	-6.844436e-003	4.654384e-001	-6.655160e-003	-8.712505e-001	2.915104e-002
1523423.423	8.829112e-001	4.004871e-004	4.673630e-001	-7.088526e-003	4.657706e-001	-6.492733e-003	-8.714048e-001	2.967004e-002
1533133.133	8.827182e-001	-9.272914e-004	4.676427e-001	-7.265139e-003	4.654135e-001	-7.092513e-003	-8.711534e-001	2.983204e-002
1542842.843	8.824758e-001	-1.170996e-003	4.673068e-001	-7.293002e-003	4.655677e-001	-6.804057e-003	-8.716246e-001	2.975849e-002
1552552.553	8.827978e-001	-1.697597e-003	4.674884e-001	-7.839938e-003	4.658390e-001	-7.416110e-003	-8.716659e-001	3.017609e-002
1562262.262	8.827010e-001	-2.515924e-003	4.675504e-001	-7.987763e-003	4.654534e-001	-7.266576e-003	-8.712771e-001	3.007778e-002
1571971.972	8.833412e-001	-2.977683e-003	4.676085e-001	-7.871887e-003	4.653250e-001	-7.992013e-003	-8.711000e-001	3.052983e-002
1581681.682	8.832705e-001	-3.353112e-003	4.675603e-001	-7.978918e-003	4.654549e-001	-7.952783e-003	-8.714343e-001	3.032303e-002
1591391.391	8.831721e-001	-4.553410e-003	4.676301e-001	-8.659008e-003	4.654572e-001	-7.744049e-003	-8.709163e-001	3.052548e-002
1601101.101	8.831686e-001	-4.667962e-003	4.677774e-001	-8.544752e-003	4.655700e-001	-8.234173e-003	-8.710120e-001	3.075327e-002
1610810.811	8.829561e-001	-4.919586e-003	4.676787e-001	-8.485831e-003	4.656150e-001	-7.997299e-003	-8.710275e-001	3.010234e-002
1620520.521	8.822106e-001	-6.338648e-003	4.672311e-001	-9.165872e-003	4.655247e-001	-8.532651e-003	-8.708997e-001	3.098463e-002
1630230.230	8.837891e-001	-6.003309e-003	4.677946e-001	-8.924085e-003	4.651502e-001	-8.631509e-003	-8.710601e-001	3.115203e-002
1639939.940	8.834733e-001	-6.649875e-003	4.678295e-001	-9.384590e-003	4.653758e-001	-9.327448e-003	-8.706826e-001	3.140726e-002
1649649.650	8.828381e-001	-7.043783e-003	4.674235e-001	-9.412023e-003	4.653192e-001	-9.219224e-003	-8.701743e-001	3.178274e-002
1659359.359	8.826896e-001	-7.610665e-003	4.671699e-001	-9.448730e-003	4.654155e-001	-9.288614e-003	-8.707275e-001	3.183926e-002
1669069.069	8.828222e-001	-8.381440e-003	4.672841e-001	-9.730018e-003	4.654226e-001	-9.468207e-003	-8.708092e-001	3.166259e-002
1678778.779	8.820209e-001	-8.956212e-003	4.671921e-001	-9.900262e-003	4.654937e-001	-9.765068e-003	-8.708703e-001	3.225217e-002
1688488.488	8.822455e-001	-9.450899e-003	4.672260e-001	-1.009961e-002	4.653861e-001	-9.818280e-003	-8.712513e-001	3.223570e-002
1698198.198	8.826709e-001	-1.020412e-002	4.672501e-001	-1.030563e-002	4.656691e-001	-1.001814e-002	-8.713908e-001	3.191801e-002
1707907.908	8.820790e-001	-1.034520e-002	4.672324e-001	-1.025667e-002	4.656722e-001	-1.027399e-002	-8.710985e-001	3.221817e-002
1717617.618	8.825111e-001	-1.017408e-002	4.670920e-001	-1.023335e-002	4.653666e-001	-1.032278e-002	-8.705272e-001	3.247614e-002
1727327.327	8.823763e-001	-1.071332e-002	4.673812e-001	-1.032494e-002	4.652953e-001	-1.046485e-002	-8.703092e-001	3.308181e-002
1737037.037	8.829246e-001	-1.203016e-002	4.672182e-001	-1.103153e-002	4.654767e-001	-1.056392e-002	-8.705297e-001	3.286592e-002
1746746.747	8.821956e-001	-1.243845e-002	4.673065e-001	-1.127790e-002	4.653448e-001	-1.056517e-002	-8.710015e-001	3.239880e-002
1756456.456	8.826132e-001	-1.266718e-002	4.674819e-001	-1.117107e-002	4.654754e-001	-1.097112e-002	-8.707863e-001	3.291464e-002
1766166.166	8.826089e-001	-1.285879e-002	4.673211e-001	-1.107786e-002	4.652303e-001	-1.119972e-002	-8.703786e-001	3.334775e-002
1775875.876	8.826328e-001	-1.341920e-002	4.674236e-001	-1.133558e-002	4.652649e-001	-1.131295e-002	-8.706205e-001	3.362572e-002
1785585.586	8.821850e-001	-1.390882e-002	4.673882e-001	-1.160829e-002	4.652142e-001	-1.156852e-002	-8.704189e-001	3.361895e-002
1795295.295	8.822922e-001	-1.416035e-002	4.670922e-001	-1.187560e-002	4.651219e-001	-1.204701e-002	-8.705019e-001	3.395820e-002
1805005.005	8.820309e-001	-1.555082e-002	4.669828e-001	-1.226432e-002	4.652657e-001	-1.193831e-002	-8.707106e-001	3.367962e-002
1814714.715	8.816520e-001	-1.520195e-002	4.667833e-001	-1.175398e-002	4.649965e-001	-1.189066e-002	-8.699689e-001	3.364183e-002
