!Keysight Technologies,E5061B,MY49709559,B.05.06
!Date: Thu Apr 07 18:55:39 2022
!Data & Calibration Information:
!Freq	S11:SOLT2(ON)	S21:SOLT2(ON)	S12:SOLT2(ON)	S22:SOLT2(ON)
# Hz S RI R 50
300000.000	7.662220e-001	2.018739e-001	-4.390609e-001	-5.148483e-002	-4.307976e-001	-4.657601e-002	-8.794937e-001	1.638418e-002
309709.710	7.658775e-001	1.947222e-001	-4.386833e-001	-4.930706e-002	-4.319514e-001	-4.522031e-002	-8.797553e-001	1.555975e-002
319419.419	7.658117e-001	1.877241e-001	-4.381703e-001	-4.744182e-002	-4.339670e-001	-4.386993e-002	-8.812677e-001	1.576188e-002
329129.129	7.668229e-001	1.813049e-001	-4.388799e-001	-4.557186e-002	-4.345426e-001	-4.270516e-002	-8.811567e-001	1.475177e-002
338838.839	7.677448e-001	1.761271e-001	-4.388093e-001	-4.408216e-002	-4.351812e-001	-4.096326e-002	-8.814853e-001	1.538631e-002
348548.549	7.678516e-001	1.703066e-001	-4.390658e-001	-4.255075e-002	-4.359484e-001	-3.961713e-002	-8.819435e-001	1.532331e-002
358258.258	7.690950e-001	1.645752e-001	-4.394950e-001	-4.088876e-002	-4.365149e-001	-3.838145e-002	-8.817532e-001	1.547588e-002
367967.968	7.698182e-001	1.603364e-001	-4.392899e-001	-3.965496e-002	-4.365006e-001	-3.749537e-002	-8.816688e-001	1.513297e-002
377677.678	7.707375e-001	1.556357e-001	-4.399303e-001	-3.876968e-002	-4.371486e-001	-3.616306e-002	-8.823031e-001	1.498052e-002
387387.387	7.713435e-001	1.510379e-001	-4.400309e-001	-3.742054e-002	-4.371557e-001	-3.507278e-002	-8.814650e-001	1.516711e-002
397097.097	7.713409e-001	1.465701e-001	-4.402062e-001	-3.618049e-002	-4.380057e-001	-3.433748e-002	-8.827309e-001	1.421862e-002
406806.807	7.722048e-001	1.421316e-001	-4.402941e-001	-3.495564e-002	-4.374353e-001	-3.294301e-002	-8.813082e-001	1.422921e-002
416516.517	7.730891e-001	1.382456e-001	-4.406054e-001	-3.359454e-002	-4.380492e-001	-3.184191e-002	-8.817326e-001	1.500254e-002
426226.226	7.730849e-001	1.349449e-001	-4.407809e-001	-3.306035e-002	-4.378116e-001	-3.086013e-002	-8.816829e-001	1.454591e-002
435935.936	7.734040e-001	1.316006e-001	-4.407396e-001	-3.198377e-002	-4.381687e-001	-3.019945e-002	-8.814031e-001	1.416769e-002
445645.646	7.744531e-001	1.277878e-001	-4.411293e-001	-3.110271e-002	-4.384135e-001	-2.948522e-002	-8.815314e-001	1.500583e-002
455355.355	7.738285e-001	1.243382e-001	-4.406952e-001	-2.996362e-002	-4.386287e-001	-2.840809e-002	-8.818905e-001	1.509824e-002
465065.065	7.743958e-001	1.212790e-001	-4.409288e-001	-2.951540e-002	-4.386847e-001	-2.778674e-002	-8.813969e-001	1.463559e-002
474774.775	7.750656e-001	1.184167e-001	-4.408545e-001	-2.862449e-002	-4.390138e-001	-2.677279e-002	-8.818228e-001	1.458687e-002
484484.484	7.753315e-001	1.161220e-001	-4.411930e-001	-2.780138e-002	-4.387753e-001	-2.658809e-002	-8.823689e-001	1.388202e-002
494194.194	7.759731e-001	1.125967e-001	-4.413615e-001	-2.688509e-002	-4.393096e-001	-2.579169e-002	-8.825661e-001	1.461024e-002
503903.904	7.760340e-001	1.106588e-001	-4.413130e-001	-2.656320e-002	-4.390509e-001	-2.527915e-002	-8.821867e-001	1.471086e-002
513613.614	7.762861e-001	1.073723e-001	-4.412957e-001	-2.499852e-002	-4.392535e-001	-2.417414e-002	-8.822949e-001	1.487154e-002
523323.323	7.765219e-001	1.050128e-001	-4.414887e-001	-2.479783e-002	-4.393111e-001	-2.312624e-002	-8.816361e-001	1.427842e-002
533033.033	7.769403e-001	1.021415e-001	-4.413652e-001	-2.356813e-002	-4.393820e-001	-2.247086e-002	-8.817680e-001	1.512065e-002
542742.743	7.772277e-001	1.000554e-001	-4.417169e-001	-2.303333e-002	-4.395647e-001	-2.182428e-002	-8.820860e-001	1.500583e-002
552452.452	7.771382e-001	9.849876e-002	-4.418982e-001	-2.269168e-002	-4.397188e-001	-2.139761e-002	-8.819251e-001	1.509729e-002
562162.162	7.776820e-001	9.611856e-002	-4.418995e-001	-2.210564e-002	-4.398181e-001	-2.050158e-002	-8.824636e-001	1.542996e-002
571871.872	7.777220e-001	9.373406e-002	-4.416667e-001	-2.104998e-002	-4.398475e-001	-2.041770e-002	-8.821822e-001	1.484027e-002
581581.582	7.775628e-001	9.124715e-002	-4.416687e-001	-2.000947e-002	-4.395421e-001	-1.983978e-002	-8.813005e-001	1.499073e-002
591291.291	7.776524e-001	8.934114e-002	-4.417611e-001	-1.992253e-002	-4.397457e-001	-1.918643e-002	-8.816954e-001	1.499376e-002
601001.001	7.777259e-001	8.733913e-002	-4.420877e-001	-1.910896e-002	-4.394793e-001	-1.905250e-002	-8.815206e-001	1.452119e-002
610710.711	7.779310e-001	8.507330e-002	-4.418467e-001	-1.837795e-002	-4.398164e-001	-1.818747e-002	-8.815356e-001	1.446308e-002
620420.420	7.782048e-001	8.411280e-002	-4.417205e-001	-1.850302e-002	-4.402793e-001	-1.731281e-002	-8.820302e-001	1.568180e-002
630130.130	7.786122e-001	8.193571e-002	-4.419284e-001	-1.806055e-002	-4.400306e-001	-1.699432e-002	-8.817272e-001	1.533361e-002
639839.840	7.786829e-001	8.028082e-002	-4.417695e-001	-1.733545e-002	-4.398654e-001	-1.652383e-002	-8.812155e-001	1.559462e-002
649549.550	7.789565e-001	7.870488e-002	-4.422897e-001	-1.700156e-002	-4.398486e-001	-1.625867e-002	-8.816995e-001	1.539469e-002
659259.259	7.784636e-001	7.726383e-002	-4.418473e-001	-1.639475e-002	-4.396919e-001	-1.544480e-002	-8.811557e-001	1.533102e-002
668968.969	7.793667e-001	7.537958e-002	-4.422550e-001	-1.580201e-002	-4.401262e-001	-1.517960e-002	-8.820309e-001	1.574243e-002
678678.679	7.792690e-001	7.359793e-002	-4.422082e-001	-1.524058e-002	-4.402213e-001	-1.517547e-002	-8.816435e-001	1.518618e-002
688388.388	7.786699e-001	7.259469e-002	-4.418611e-001	-1.512668e-002	-4.401844e-001	-1.416734e-002	-8.812256e-001	1.552035e-002
698098.098	7.788884e-001	7.052228e-002	-4.419717e-001	-1.452309e-002	-4.402840e-001	-1.398817e-002	-8.815159e-001	1.564415e-002
707807.808	7.789413e-001	6.923166e-002	-4.421020e-001	-1.392251e-002	-4.400851e-001	-1.348452e-002	-8.810302e-001	1.569496e-002
717517.518	7.787729e-001	6.740933e-002	-4.418548e-001	-1.367848e-002	-4.402765e-001	-1.334559e-002	-8.812605e-001	1.532617e-002
727227.227	7.795431e-001	6.585678e-002	-4.422006e-001	-1.322333e-002	-4.403036e-001	-1.302909e-002	-8.817412e-001	1.552842e-002
736936.937	7.794344e-001	6.452614e-002	-4.421264e-001	-1.258324e-002	-4.400863e-001	-1.255841e-002	-8.815062e-001	1.510579e-002
746646.647	7.794135e-001	6.370657e-002	-4.421105e-001	-1.253008e-002	-4.403264e-001	-1.259629e-002	-8.816004e-001	1.501012e-002
756356.356	7.792464e-001	6.246057e-002	-4.420609e-001	-1.197773e-002	-4.404962e-001	-1.189164e-002	-8.813959e-001	1.582076e-002
766066.066	7.796583e-001	6.083946e-002	-4.423050e-001	-1.169882e-002	-4.400680e-001	-1.157409e-002	-8.813071e-001	1.565611e-002
775775.776	7.789385e-001	5.971577e-002	-4.419625e-001	-1.151161e-002	-4.401783e-001	-1.130723e-002	-8.814875e-001	1.523663e-002
785485.485	7.799608e-001	5.864385e-002	-4.424616e-001	-1.143309e-002	-4.401809e-001	-1.088629e-002	-8.813776e-001	1.537567e-002
795195.195	7.796427e-001	5.732162e-002	-4.423341e-001	-1.086558e-002	-4.404195e-001	-1.064164e-002	-8.810855e-001	1.546563e-002
804904.905	7.799906e-001	5.637575e-002	-4.423237e-001	-1.039119e-002	-4.402862e-001	-9.876786e-003	-8.810440e-001	1.614602e-002
814614.615	7.798988e-001	5.479517e-002	-4.424988e-001	-9.907787e-003	-4.404762e-001	-9.662268e-003	-8.813723e-001	1.572613e-002
824324.324	7.795205e-001	5.344868e-002	-4.420300e-001	-9.426709e-003	-4.404668e-001	-9.184755e-003	-8.810827e-001	1.627881e-002
834034.034	7.798138e-001	5.305752e-002	-4.423306e-001	-9.531396e-003	-4.404869e-001	-9.147092e-003	-8.814970e-001	1.597755e-002
843743.744	7.801386e-001	5.162879e-002	-4.425240e-001	-9.012855e-003	-4.403760e-001	-8.868091e-003	-8.811686e-001	1.633707e-002
853453.453	7.797771e-001	5.043893e-002	-4.422472e-001	-8.346546e-003	-4.405249e-001	-8.356418e-003	-8.810182e-001	1.639403e-002
863163.163	7.795951e-001	4.964621e-002	-4.421521e-001	-8.509384e-003	-4.404090e-001	-8.139275e-003	-8.810990e-001	1.660524e-002
872872.873	7.800181e-001	4.809644e-002	-4.423939e-001	-7.740362e-003	-4.402967e-001	-7.967255e-003	-8.810971e-001	1.663637e-002
882582.583	7.795957e-001	4.779305e-002	-4.420910e-001	-7.788011e-003	-4.402229e-001	-7.293890e-003	-8.809484e-001	1.706097e-002
892292.292	7.800584e-001	4.604042e-002	-4.423799e-001	-7.194778e-003	-4.403713e-001	-7.391366e-003	-8.810012e-001	1.725650e-002
902002.002	7.798351e-001	4.536561e-002	-4.426427e-001	-7.268486e-003	-4.405756e-001	-6.834958e-003	-8.813457e-001	1.734063e-002
911711.712	7.797988e-001	4.423071e-002	-4.422971e-001	-6.502054e-003	-4.400788e-001	-6.275361e-003	-8.810962e-001	1.739472e-002
921421.421	7.799359e-001	4.355643e-002	-4.425125e-001	-6.341754e-003	-4.403735e-001	-6.297710e-003	-8.810256e-001	1.726428e-002
931131.131	7.795189e-001	4.265525e-002	-4.421784e-001	-6.060268e-003	-4.402906e-001	-5.956625e-003	-8.807104e-001	1.729165e-002
940840.841	7.796438e-001	4.122305e-002	-4.421085e-001	-5.881827e-003	-4.404129e-001	-5.275607e-003	-8.808580e-001	1.793702e-002
950550.551	7.800429e-001	3.967676e-002	-4.421273e-001	-5.008030e-003	-4.403991e-001	-5.593940e-003	-8.806971e-001	1.733820e-002
960260.260	7.800003e-001	3.933810e-002	-4.423021e-001	-5.032450e-003	-4.402011e-001	-5.077735e-003	-8.804267e-001	1.824474e-002
969969.970	7.797443e-001	3.867604e-002	-4.422641e-001	-4.694785e-003	-4.401197e-001	-5.218847e-003	-8.804016e-001	1.721377e-002
979679.680	7.797540e-001	3.816649e-002	-4.421548e-001	-4.555422e-003	-4.404797e-001	-4.570821e-003	-8.810000e-001	1.823412e-002
989389.389	7.793224e-001	3.683716e-002	-4.418059e-001	-3.983655e-003	-4.405937e-001	-4.319384e-003	-8.811643e-001	1.780198e-002
999099.099	7.802275e-001	3.615231e-002	-4.427765e-001	-4.191148e-003	-4.406293e-001	-4.249534e-003	-8.810545e-001	1.787677e-002
1008808.809	7.800732e-001	3.577225e-002	-4.422081e-001	-3.989808e-003	-4.403614e-001	-4.198435e-003	-8.809438e-001	1.795448e-002
1018518.519	7.792971e-001	3.486888e-002	-4.418687e-001	-3.556190e-003	-4.404003e-001	-3.829315e-003	-8.804893e-001	1.819597e-002
1028228.228	7.797067e-001	3.386466e-002	-4.421390e-001	-3.273677e-003	-4.406860e-001	-3.632293e-003	-8.808047e-001	1.794998e-002
1037937.938	7.795452e-001	3.294416e-002	-4.419809e-001	-2.995469e-003	-4.407606e-001	-3.264767e-003	-8.808728e-001	1.842572e-002
1047647.648	7.799044e-001	3.168779e-002	-4.422541e-001	-2.740847e-003	-4.407553e-001	-2.763689e-003	-8.810890e-001	1.879760e-002
1057357.357	7.802294e-001	3.125944e-002	-4.422482e-001	-2.842375e-003	-4.410038e-001	-2.713844e-003	-8.810933e-001	1.846345e-002
1067067.067	7.800822e-001	3.034292e-002	-4.424394e-001	-2.459399e-003	-4.405208e-001	-2.404970e-003	-8.808243e-001	1.861917e-002
1076776.777	7.801042e-001	2.991813e-002	-4.421543e-001	-2.311673e-003	-4.402975e-001	-1.912788e-003	-8.802315e-001	1.903665e-002
1086486.486	7.799366e-001	2.940484e-002	-4.423096e-001	-2.051984e-003	-4.404287e-001	-1.846228e-003	-8.805752e-001	1.872721e-002
1096196.196	7.801115e-001	2.850034e-002	-4.421387e-001	-1.899197e-003	-4.405367e-001	-1.759051e-003	-8.810950e-001	1.914287e-002
1105905.906	7.800477e-001	2.715877e-002	-4.423884e-001	-1.223857e-003	-4.403320e-001	-1.509781e-003	-8.802625e-001	1.940052e-002
1115615.616	7.799833e-001	2.664204e-002	-4.418700e-001	-1.284033e-003	-4.403521e-001	-1.410719e-003	-8.805361e-001	1.946600e-002
1125325.325	7.798415e-001	2.629149e-002	-4.417305e-001	-1.304043e-003	-4.408312e-001	-6.221392e-004	-8.806748e-001	1.970459e-002
1135035.035	7.798412e-001	2.542588e-002	-4.421730e-001	-8.498292e-004	-4.405705e-001	-6.503069e-004	-8.806904e-001	2.024030e-002
1144744.745	7.797018e-001	2.513913e-002	-4.418023e-001	-8.161759e-004	-4.400837e-001	-5.240956e-004	-8.797808e-001	1.985051e-002
1154454.454	7.797272e-001	2.453921e-002	-4.420668e-001	-8.096182e-004	-4.401785e-001	-5.831608e-004	-8.801618e-001	1.978386e-002
1164164.164	7.800308e-001	2.363874e-002	-4.422232e-001	-1.206995e-004	-4.401523e-001	-2.638934e-004	-8.804617e-001	1.985034e-002
1173873.874	7.797893e-001	2.282285e-002	-4.420262e-001	6.318283e-006	-4.404109e-001	-3.165385e-005	-8.800764e-001	2.006138e-002
1183583.584	7.801506e-001	2.243944e-002	-4.421983e-001	2.199783e-004	-4.403430e-001	9.123193e-005	-8.799239e-001	2.006334e-002
1193293.293	7.802495e-001	2.154355e-002	-4.424843e-001	6.010360e-004	-4.401376e-001	2.844326e-004	-8.800020e-001	1.998359e-002
1203003.003	7.800197e-001	2.117067e-002	-4.419762e-001	5.738602e-004	-4.402454e-001	5.094040e-004	-8.800500e-001	1.976425e-002
1212712.713	7.799175e-001	2.011294e-002	-4.423034e-001	1.192338e-003	-4.403245e-001	5.274381e-004	-8.803096e-001	1.991336e-002
1222422.422	7.798678e-001	1.962479e-002	-4.422222e-001	1.055678e-003	-4.402634e-001	9.341162e-004	-8.801626e-001	2.001263e-002
1232132.132	7.792954e-001	1.886282e-002	-4.419519e-001	1.487323e-003	-4.400168e-001	1.309141e-003	-8.793424e-001	2.057593e-002
1241841.842	7.799496e-001	1.826536e-002	-4.424004e-001	1.522228e-003	-4.402254e-001	1.432749e-003	-8.796470e-001	2.069991e-002
1251551.552	7.801157e-001	1.788682e-002	-4.424207e-001	1.369058e-003	-4.406113e-001	1.665476e-003	-8.799568e-001	2.104184e-002
1261261.261	7.797954e-001	1.700968e-002	-4.421748e-001	1.992331e-003	-4.401464e-001	1.655897e-003	-8.799009e-001	2.092454e-002
1270970.971	7.795165e-001	1.667044e-002	-4.419921e-001	1.983031e-003	-4.403672e-001	2.081037e-003	-8.799864e-001	2.087115e-002
1280680.681	7.801852e-001	1.611467e-002	-4.422241e-001	2.066138e-003	-4.402474e-001	2.414095e-003	-8.798532e-001	2.133821e-002
1290390.390	7.795492e-001	1.560369e-002	-4.420651e-001	2.317322e-003	-4.401669e-001	2.768670e-003	-8.794969e-001	2.165167e-002
1300100.100	7.800387e-001	1.453177e-002	-4.422051e-001	2.439514e-003	-4.404417e-001	2.755830e-003	-8.797763e-001	2.138061e-002
1309809.810	7.799968e-001	1.439046e-002	-4.424827e-001	2.533323e-003	-4.401986e-001	2.839757e-003	-8.795498e-001	2.148507e-002
1319519.520	7.802273e-001	1.329363e-002	-4.421499e-001	3.180836e-003	-4.401675e-001	3.190224e-003	-8.797463e-001	2.183962e-002
1329229.229	7.802198e-001	1.290302e-002	-4.424250e-001	3.319724e-003	-4.402385e-001	3.135242e-003	-8.796006e-001	2.130075e-002
1338938.939	7.800493e-001	1.261761e-002	-4.423098e-001	3.422298e-003	-4.402050e-001	3.389043e-003	-8.797012e-001	2.175294e-002
1348648.649	7.797745e-001	1.198712e-002	-4.421477e-001	3.553375e-003	-4.401219e-001	3.329915e-003	-8.795625e-001	2.157055e-002
1358358.358	7.799784e-001	1.126087e-002	-4.422124e-001	3.727396e-003	-4.401494e-001	3.619609e-003	-8.790105e-001	2.187967e-002
1368068.068	7.798746e-001	1.057118e-002	-4.419696e-001	3.898047e-003	-4.400384e-001	3.835105e-003	-8.791402e-001	2.167419e-002
1377777.778	7.796426e-001	1.048142e-002	-4.419965e-001	3.843078e-003	-4.404495e-001	4.053551e-003	-8.796066e-001	2.188609e-002
1387487.487	7.797097e-001	9.605517e-003	-4.421836e-001	4.191816e-003	-4.400854e-001	4.209088e-003	-8.791798e-001	2.174804e-002
1397197.197	7.803789e-001	9.457038e-003	-4.423850e-001	4.175956e-003	-4.401298e-001	4.226655e-003	-8.790413e-001	2.214791e-002
1406906.907	7.802141e-001	8.503661e-003	-4.420701e-001	4.741455e-003	-4.403846e-001	4.637963e-003	-8.793109e-001	2.220523e-002
1416616.617	7.799571e-001	8.231269e-003	-4.419943e-001	4.954975e-003	-4.404371e-001	4.615141e-003	-8.792272e-001	2.203953e-002
1426326.326	7.803067e-001	6.959683e-003	-4.423671e-001	5.239489e-003	-4.403544e-001	4.872627e-003	-8.794830e-001	2.207104e-002
1436036.036	7.801637e-001	7.033625e-003	-4.422338e-001	5.320615e-003	-4.399843e-001	5.158883e-003	-8.791751e-001	2.251402e-002
1445745.746	7.796562e-001	6.479614e-003	-4.419260e-001	5.252951e-003	-4.401194e-001	5.095745e-003	-8.791126e-001	2.206278e-002
1455455.455	7.801885e-001	5.770273e-003	-4.421025e-001	5.780478e-003	-4.400923e-001	5.236596e-003	-8.786321e-001	2.208274e-002
1465165.165	7.797407e-001	5.247662e-003	-4.415976e-001	5.901762e-003	-4.398555e-001	5.368396e-003	-8.787795e-001	2.243609e-002
1474874.875	7.802945e-001	4.224271e-003	-4.420524e-001	6.376326e-003	-4.399014e-001	5.415851e-003	-8.793892e-001	2.222282e-002
1484584.585	7.796977e-001	3.726130e-003	-4.418220e-001	6.277002e-003	-4.401417e-001	5.804759e-003	-8.788507e-001	2.285187e-002
1494294.294	7.796291e-001	3.508914e-003	-4.415699e-001	6.442602e-003	-4.398029e-001	6.064166e-003	-8.781581e-001	2.270367e-002
1504004.004	7.800181e-001	3.418241e-003	-4.419404e-001	6.555834e-003	-4.401645e-001	6.334895e-003	-8.794042e-001	2.348073e-002
1513713.714	7.803656e-001	2.563039e-003	-4.421467e-001	6.948836e-003	-4.402100e-001	6.457027e-003	-8.787660e-001	2.277441e-002
1523423.423	7.798526e-001	1.802731e-003	-4.418208e-001	6.879343e-003	-4.402836e-001	6.701549e-003	-8.788222e-001	2.314144e-002
1533133.133	7.793661e-001	1.966326e-003	-4.417494e-001	7.077820e-003	-4.396363e-001	6.767688e-003	-8.785403e-001	2.320351e-002
1542842.843	7.795935e-001	8.943541e-004	-4.418044e-001	7.412922e-003	-4.400250e-001	6.859971e-003	-8.788234e-001	2.339139e-002
1552552.553	7.798341e-001	2.934886e-004	-4.418411e-001	7.659444e-003	-4.401673e-001	7.065253e-003	-8.789996e-001	2.332827e-002
1562262.262	7.795116e-001	-2.557451e-006	-4.420493e-001	7.433800e-003	-4.402023e-001	7.308314e-003	-8.788206e-001	2.374052e-002
1571971.972	7.800979e-001	-5.778450e-004	-4.419838e-001	7.810360e-003	-4.401391e-001	7.429868e-003	-8.788190e-001	2.362897e-002
1581681.682	7.801159e-001	-4.573447e-004	-4.420161e-001	7.553204e-003	-4.397870e-001	7.386589e-003	-8.783606e-001	2.368635e-002
1591391.391	7.799969e-001	-1.081611e-003	-4.415614e-001	7.964379e-003	-4.401930e-001	7.957478e-003	-8.787636e-001	2.422506e-002
1601101.101	7.799439e-001	-1.552822e-003	-4.419336e-001	8.052123e-003	-4.401271e-001	8.134892e-003	-8.784491e-001	2.425581e-002
1610810.811	7.800418e-001	-2.282087e-003	-4.421255e-001	8.336759e-003	-4.401859e-001	8.113277e-003	-8.789841e-001	2.440621e-002
1620520.521	7.792600e-001	-2.868454e-003	-4.417525e-001	8.512125e-003	-4.399567e-001	8.165357e-003	-8.786306e-001	2.409205e-002
1630230.230	7.799728e-001	-3.452307e-003	-4.417209e-001	8.582340e-003	-4.396602e-001	8.513215e-003	-8.781207e-001	2.447621e-002
1639939.940	7.793084e-001	-3.715290e-003	-4.418440e-001	8.715612e-003	-4.402556e-001	8.563854e-003	-8.786391e-001	2.442901e-002
1649649.650	7.800313e-001	-4.239123e-003	-4.420934e-001	8.789997e-003	-4.401256e-001	8.536290e-003	-8.786570e-001	2.443985e-002
1659359.359	7.795847e-001	-4.490671e-003	-4.415070e-001	8.784454e-003	-4.396441e-001	8.878647e-003	-8.781552e-001	2.452627e-002
1669069.069	7.799900e-001	-4.902601e-003	-4.416187e-001	9.169483e-003	-4.402352e-001	8.896578e-003	-8.791364e-001	2.452858e-002
1678778.779	7.795700e-001	-5.876207e-003	-4.414502e-001	9.641416e-003	-4.401309e-001	9.292002e-003	-8.787193e-001	2.520865e-002
1688488.488	7.798198e-001	-6.030398e-003	-4.421209e-001	9.441085e-003	-4.397001e-001	9.108462e-003	-8.782912e-001	2.495601e-002
1698198.198	7.796980e-001	-6.384985e-003	-4.418012e-001	9.633702e-003	-4.400822e-001	9.639112e-003	-8.787495e-001	2.483391e-002
1707907.908	7.792786e-001	-6.760608e-003	-4.413408e-001	9.810659e-003	-4.397269e-001	9.621157e-003	-8.782026e-001	2.497660e-002
1717617.618	7.794619e-001	-7.569110e-003	-4.417018e-001	9.984664e-003	-4.397369e-001	9.730341e-003	-8.785045e-001	2.521255e-002
1727327.327	7.793981e-001	-7.786580e-003	-4.416158e-001	1.029578e-002	-4.396157e-001	1.005834e-002	-8.781056e-001	2.587529e-002
1737037.037	7.793510e-001	-7.848227e-003	-4.414371e-001	1.013259e-002	-4.399190e-001	1.013781e-002	-8.781860e-001	2.556225e-002
1746746.747	7.789666e-001	-8.593284e-003	-4.414538e-001	1.053835e-002	-4.397553e-001	1.047830e-002	-8.781885e-001	2.590052e-002
1756456.456	7.794474e-001	-9.088496e-003	-4.413943e-001	1.065813e-002	-4.398199e-001	1.029300e-002	-8.783420e-001	2.557181e-002
1766166.166	7.794693e-001	-9.464691e-003	-4.414366e-001	1.080403e-002	-4.399074e-001	1.081777e-002	-8.785781e-001	2.608704e-002
1775875.876	7.794026e-001	-9.395801e-003	-4.416171e-001	1.069474e-002	-4.395324e-001	1.082832e-002	-8.780197e-001	2.581743e-002
1785585.586	7.791180e-001	-1.020230e-002	-4.418710e-001	1.099655e-002	-4.395215e-001	1.079482e-002	-8.781611e-001	2.609857e-002
