!Keysight Technologies,E5061B,MY49709559,B.05.06
!Date: Fri Apr 08 00:54:16 2022
!Data & Calibration Information:
!Freq	S11:SOLT2(ON)	S21:SOLT2(ON)	S12:SOLT2(ON)	S22:SOLT2(ON)
# Hz S RI R 50
300000.000	-9.480412e-001	7.442590e-002	-2.938369e-007	-5.360894e-006	-1.939532e-005	1.144494e-005	9.039484e-001	-1.227723e-003
309709.710	-9.476272e-001	7.674587e-002	-6.777255e-006	-2.612272e-005	-2.379079e-005	1.398957e-005	9.041489e-001	-1.627734e-003
319419.419	-9.473519e-001	7.887328e-002	1.313913e-005	-5.006099e-005	-1.542534e-005	-4.879841e-005	9.039877e-001	-1.539695e-003
329129.129	-9.457543e-001	8.178238e-002	-3.343499e-005	2.151695e-005	-6.967548e-006	-4.407857e-006	9.032911e-001	-1.162097e-003
338838.839	-9.449065e-001	8.349683e-002	3.731432e-006	3.748906e-005	2.494532e-005	5.454534e-005	9.040342e-001	-9.681476e-004
348548.549	-9.448707e-001	8.465140e-002	-1.321598e-005	6.963694e-006	3.461643e-005	1.478788e-005	9.037095e-001	-7.888692e-004
358258.258	-9.442023e-001	8.712526e-002	-1.223869e-005	-2.616854e-005	-1.066148e-005	-2.677174e-005	9.037108e-001	-1.520840e-003
367967.968	-9.432240e-001	9.010254e-002	-1.081342e-005	-1.803089e-005	-6.412008e-007	-4.019756e-005	9.032356e-001	-1.079100e-003
377677.678	-9.434112e-001	9.018357e-002	6.493024e-007	-3.081143e-005	-1.488040e-005	-5.098295e-005	9.038243e-001	-1.101307e-003
387387.387	-9.413445e-001	9.272100e-002	8.516622e-006	7.103802e-005	2.555343e-005	4.945496e-006	9.033337e-001	-1.634584e-003
397097.097	-9.420997e-001	9.634308e-002	-6.664726e-007	-1.781562e-005	-4.343189e-005	3.007023e-005	9.035594e-001	-1.042080e-003
406806.807	-9.413390e-001	9.716349e-002	8.700774e-006	7.516464e-005	-2.065707e-005	-7.241227e-006	9.026142e-001	-1.435311e-003
416516.517	-9.401013e-001	9.958482e-002	1.768924e-005	1.741606e-006	7.671355e-006	-1.711240e-005	9.034924e-001	-1.133131e-003
426226.226	-9.388087e-001	1.016354e-001	-3.975944e-005	-5.516447e-006	-6.518393e-006	-1.731430e-005	9.034900e-001	-1.800589e-003
435935.936	-9.393766e-001	1.029355e-001	-2.613560e-005	-5.543273e-005	1.250488e-005	-4.662046e-005	9.034673e-001	-7.527420e-004
445645.646	-9.373594e-001	1.049432e-001	1.826140e-005	-1.422508e-005	-3.358216e-006	6.868304e-006	9.036455e-001	-1.721993e-003
455355.355	-9.364655e-001	1.072571e-001	1.919126e-005	2.534090e-005	1.891082e-005	1.545108e-005	9.028073e-001	-1.242725e-003
465065.065	-9.363181e-001	1.090577e-001	6.228880e-005	2.130744e-005	-1.220151e-005	4.688139e-005	9.034059e-001	-1.348776e-003
474774.775	-9.343801e-001	1.101275e-001	5.071455e-005	-2.308215e-006	1.975386e-005	-4.455974e-005	9.029281e-001	-1.736559e-003
484484.484	-9.345744e-001	1.127900e-001	-6.432410e-005	6.360546e-006	3.835267e-005	-2.937416e-005	9.037314e-001	-1.302882e-003
494194.194	-9.343045e-001	1.144218e-001	-1.930364e-006	3.492527e-005	2.938625e-005	4.899134e-005	9.032923e-001	-1.502900e-003
503903.904	-9.330275e-001	1.161520e-001	1.634244e-005	-1.675302e-005	2.118210e-006	1.617043e-005	9.028584e-001	-7.382875e-004
513613.614	-9.320817e-001	1.173689e-001	2.332184e-005	1.073063e-006	-7.048125e-005	1.319129e-005	9.032810e-001	-1.542194e-003
523323.323	-9.317281e-001	1.192724e-001	6.754720e-005	3.167651e-005	-5.689503e-005	4.831815e-006	9.031244e-001	-2.027436e-003
533033.033	-9.320659e-001	1.210972e-001	1.925442e-005	-2.824620e-005	3.054872e-005	-2.024158e-005	9.030094e-001	-1.208616e-003
542742.743	-9.311339e-001	1.229494e-001	-1.385130e-005	5.240178e-005	-2.320421e-005	-2.100380e-005	9.034704e-001	-1.459875e-003
552452.452	-9.301464e-001	1.243896e-001	7.919279e-006	-1.328902e-005	1.265390e-005	5.146302e-006	9.035122e-001	-1.819833e-003
562162.162	-9.296259e-001	1.270605e-001	4.343139e-006	2.950731e-005	2.318154e-005	4.307457e-005	9.026111e-001	-1.787216e-003
571871.872	-9.290926e-001	1.281317e-001	3.967072e-005	5.807707e-005	9.355421e-006	2.017719e-005	9.037407e-001	-1.761336e-003
581581.582	-9.279147e-001	1.293427e-001	-4.875305e-006	-1.097092e-005	-7.444248e-005	-1.594992e-005	9.038244e-001	-1.852471e-003
591291.291	-9.270335e-001	1.316814e-001	2.004913e-005	-5.223255e-005	3.957508e-005	-4.029373e-006	9.033154e-001	-1.616083e-003
601001.001	-9.264576e-001	1.331959e-001	-1.376602e-005	2.278710e-005	8.630450e-006	1.540575e-005	9.027108e-001	-2.185501e-003
610710.711	-9.264255e-001	1.347307e-001	-2.222068e-005	-1.321168e-005	-3.140481e-005	-5.796818e-005	9.035259e-001	-1.640856e-003
620420.420	-9.259645e-001	1.358887e-001	4.414051e-005	4.837273e-006	-1.572542e-006	-2.338348e-005	9.030488e-001	-1.707718e-003
630130.130	-9.246164e-001	1.380752e-001	-3.527052e-005	1.378069e-005	2.366222e-005	-2.453906e-005	9.033552e-001	-1.418538e-003
639839.840	-9.247243e-001	1.394723e-001	-9.797325e-006	-5.702918e-006	5.968015e-005	-1.898438e-005	9.032016e-001	-1.909741e-003
649549.550	-9.231234e-001	1.409310e-001	1.365551e-006	1.376005e-005	-9.680291e-006	-7.308823e-006	9.032978e-001	-1.780820e-003
659259.259	-9.215204e-001	1.423578e-001	2.609567e-005	-3.951651e-005	-3.918435e-006	-1.548698e-005	9.030321e-001	-1.750271e-003
668968.969	-9.214355e-001	1.447434e-001	-4.405807e-005	-1.551928e-005	3.110028e-005	-5.671632e-006	9.027970e-001	-2.384918e-003
678678.679	-9.207244e-001	1.462545e-001	-1.887690e-005	2.584668e-005	-1.130731e-005	1.698862e-005	9.027333e-001	-2.383279e-003
688388.388	-9.194373e-001	1.482624e-001	-7.722420e-006	5.679933e-005	2.806602e-005	6.682916e-006	9.025542e-001	-1.898723e-003
698098.098	-9.190344e-001	1.498373e-001	1.712849e-005	-3.092893e-005	-4.711280e-005	5.847766e-006	9.029231e-001	-1.753139e-003
707807.808	-9.191717e-001	1.508816e-001	2.432677e-005	3.509662e-005	1.293619e-005	-1.470143e-005	9.024145e-001	-2.026747e-003
717517.518	-9.174586e-001	1.524153e-001	-4.975347e-006	3.190066e-005	5.399648e-005	2.897316e-005	9.034216e-001	-2.397905e-003
727227.227	-9.174376e-001	1.541422e-001	-1.870427e-005	-5.474029e-006	3.362416e-005	3.864243e-005	9.026573e-001	-1.990801e-003
736936.937	-9.164064e-001	1.564254e-001	-2.280104e-005	-2.235821e-006	5.927287e-005	1.978946e-005	9.029214e-001	-1.947563e-003
746646.647	-9.154824e-001	1.580197e-001	4.397215e-006	1.880670e-005	-5.074238e-005	-2.541254e-005	9.032453e-001	-2.066875e-003
756356.356	-9.153907e-001	1.591802e-001	-2.555510e-005	-6.887395e-005	-2.008156e-005	-4.727600e-005	9.035332e-001	-1.999746e-003
766066.066	-9.148939e-001	1.604841e-001	-2.184768e-006	-3.705814e-005	-5.363768e-005	-1.036410e-006	9.035139e-001	-1.849069e-003
775775.776	-9.132625e-001	1.627148e-001	-1.271797e-005	-3.598007e-005	4.320877e-005	3.400376e-005	9.029693e-001	-1.312301e-003
785485.485	-9.137996e-001	1.645025e-001	-5.519902e-006	-2.173056e-005	8.144862e-006	-1.257102e-005	9.032971e-001	-2.353170e-003
795195.195	-9.125568e-001	1.668478e-001	-3.143847e-005	6.669946e-006	-1.159503e-005	-2.066791e-005	9.032553e-001	-2.277286e-003
804904.905	-9.119514e-001	1.669642e-001	1.612396e-005	1.670609e-005	5.474367e-005	1.607267e-005	9.032317e-001	-1.671734e-003
814614.615	-9.112868e-001	1.687054e-001	-4.195144e-005	-4.947351e-005	2.768918e-005	-5.559169e-005	9.028170e-001	-1.956935e-003
824324.324	-9.108687e-001	1.703288e-001	1.216661e-005	-1.046358e-005	9.044841e-006	-1.411581e-005	9.033708e-001	-2.173665e-003
834034.034	-9.099551e-001	1.717057e-001	-2.477377e-005	1.820286e-005	-6.399275e-005	-3.310636e-005	9.030712e-001	-2.176830e-003
843743.744	-9.092172e-001	1.733490e-001	-9.703666e-006	6.879048e-005	2.902354e-005	9.672745e-006	9.031589e-001	-2.441003e-003
853453.453	-9.083954e-001	1.745896e-001	-6.331646e-006	-1.052996e-005	-4.984534e-005	-1.440644e-005	9.032047e-001	-1.799558e-003
863163.163	-9.078620e-001	1.766111e-001	2.002954e-005	2.256760e-005	-2.569635e-005	-2.115670e-005	9.033456e-001	-2.452547e-003
872872.873	-9.064729e-001	1.776159e-001	-5.904631e-005	1.391052e-005	-1.783007e-005	-7.203158e-005	9.026900e-001	-1.414645e-003
882582.583	-9.074419e-001	1.793420e-001	-3.251856e-005	-8.631421e-006	2.876376e-005	-5.774265e-006	9.028150e-001	-2.458976e-003
892292.292	-9.056706e-001	1.818146e-001	1.072320e-005	-3.632583e-005	-1.407564e-005	-1.146517e-005	9.028456e-001	-2.381636e-003
902002.002	-9.057801e-001	1.820139e-001	-1.054830e-005	1.077103e-005	-2.251228e-005	-1.379388e-005	9.027525e-001	-2.648234e-003
911711.712	-9.055075e-001	1.836488e-001	2.466414e-005	-2.273662e-005	-1.061308e-005	2.889412e-005	9.025966e-001	-2.424207e-003
921421.421	-9.033282e-001	1.853307e-001	-1.551143e-005	-4.024275e-005	5.964426e-006	5.262189e-006	9.029974e-001	-2.575208e-003
931131.131	-9.038746e-001	1.876498e-001	-9.885312e-006	-8.317518e-006	1.330219e-005	-2.508568e-006	9.031169e-001	-1.794587e-003
940840.841	-9.024627e-001	1.888192e-001	-2.851648e-006	1.836007e-005	1.370664e-005	-6.066694e-005	9.029124e-001	-3.086847e-003
950550.551	-9.017320e-001	1.895775e-001	-4.152229e-006	4.596204e-006	7.975644e-006	-2.018410e-005	9.029140e-001	-2.840917e-003
960260.260	-9.015205e-001	1.925105e-001	-2.216689e-005	6.472721e-005	-5.261307e-005	-1.505865e-005	9.037592e-001	-2.874001e-003
969969.970	-9.004087e-001	1.936121e-001	-3.728963e-005	2.441678e-005	-4.958661e-005	2.129525e-005	9.032518e-001	-2.638084e-003
979679.680	-9.003228e-001	1.954551e-001	-3.708190e-005	-2.175609e-005	-3.369992e-005	2.719040e-005	9.027069e-001	-2.406290e-003
989389.389	-8.992279e-001	1.969687e-001	-1.724034e-005	7.048222e-006	7.130680e-006	7.312382e-005	9.029963e-001	-2.582964e-003
999099.099	-8.988642e-001	1.975427e-001	1.810873e-005	-2.928592e-005	4.258776e-005	2.278854e-005	9.028181e-001	-3.044955e-003
1008808.809	-8.972534e-001	1.986550e-001	3.324981e-006	1.255756e-005	-1.912155e-005	-2.221525e-005	9.026721e-001	-2.809884e-003
1018518.519	-8.968281e-001	2.001190e-001	8.681535e-006	-6.816374e-007	3.186142e-005	-2.238646e-005	9.031483e-001	-2.233348e-003
1028228.228	-8.962229e-001	2.024483e-001	1.520761e-005	-3.266137e-005	-3.177648e-005	-3.119174e-006	9.032610e-001	-2.342182e-003
1037937.938	-8.954615e-001	2.041138e-001	-3.403905e-005	1.567464e-005	-4.470729e-005	4.455603e-006	9.027396e-001	-3.502848e-003
1047647.648	-8.952437e-001	2.058785e-001	-1.713927e-005	1.227793e-005	-6.391747e-005	2.010896e-005	9.034508e-001	-4.025653e-003
1057357.357	-8.944142e-001	2.070199e-001	2.538662e-005	-3.712793e-005	1.697117e-005	1.506750e-005	9.033181e-001	-3.158402e-003
1067067.067	-8.938320e-001	2.081380e-001	8.146597e-006	6.193536e-006	1.800907e-005	-1.182704e-005	9.032377e-001	-2.700879e-003
1076776.777	-8.931391e-001	2.103636e-001	1.920456e-006	1.605459e-005	2.573977e-005	1.005383e-005	9.029457e-001	-3.061939e-003
1086486.486	-8.924117e-001	2.117068e-001	-1.893391e-005	4.841815e-005	2.516693e-005	1.146888e-005	9.023024e-001	-3.184584e-003
1096196.196	-8.925724e-001	2.133442e-001	-3.159096e-006	1.871620e-005	8.475930e-006	-1.624793e-005	9.023565e-001	-3.219319e-003
1105905.906	-8.910697e-001	2.144591e-001	3.905165e-005	-3.847997e-006	4.383459e-007	2.322555e-005	9.031900e-001	-3.302981e-003
1115615.616	-8.898215e-001	2.162087e-001	2.144992e-005	-1.569033e-005	6.362827e-005	2.132819e-006	9.032504e-001	-3.254275e-003
1125325.325	-8.893618e-001	2.176556e-001	-7.755844e-006	1.723472e-005	8.621846e-006	-5.488149e-006	9.027496e-001	-3.152390e-003
1135035.035	-8.891584e-001	2.194555e-001	-3.723114e-005	-6.707943e-006	4.469270e-006	-1.143828e-005	9.031395e-001	-2.451528e-003
1144744.745	-8.878265e-001	2.203588e-001	2.591908e-006	8.441980e-007	-1.026703e-005	-8.893145e-006	9.026223e-001	-2.264492e-003
1154454.454	-8.872027e-001	2.212852e-001	3.668060e-005	5.315864e-005	-2.861225e-006	5.256923e-005	9.030159e-001	-3.277236e-003
1164164.164	-8.863679e-001	2.228338e-001	1.748513e-005	4.066208e-005	-3.050881e-006	-5.315523e-005	9.030961e-001	-3.102391e-003
1173873.874	-8.871493e-001	2.251775e-001	2.828560e-005	-1.884083e-005	-1.846386e-006	-1.874192e-005	9.028859e-001	-3.430553e-003
1183583.584	-8.862351e-001	2.263075e-001	2.504448e-005	-1.617028e-005	-8.274048e-007	2.025512e-005	9.033732e-001	-3.313471e-003
1193293.293	-8.845588e-001	2.276922e-001	-2.300074e-006	1.904420e-005	4.357552e-006	2.322317e-005	9.028849e-001	-2.874259e-003
1203003.003	-8.840357e-001	2.285721e-001	7.631082e-006	1.934328e-005	-2.359460e-005	-5.944904e-005	9.027982e-001	-3.906988e-003
1212712.713	-8.837524e-001	2.302603e-001	2.277358e-005	1.437557e-005	-4.993407e-005	1.876688e-005	9.029969e-001	-3.536430e-003
1222422.422	-8.823534e-001	2.316790e-001	-3.685556e-005	2.307099e-005	2.027085e-007	9.701438e-006	9.026803e-001	-3.998050e-003
1232132.132	-8.817379e-001	2.339047e-001	4.953894e-005	1.393309e-005	-3.624978e-005	1.108012e-005	9.027358e-001	-3.290044e-003
1241841.842	-8.811897e-001	2.347796e-001	-5.712598e-007	4.258831e-005	-4.335516e-005	4.475929e-007	9.033815e-001	-3.374566e-003
1251551.552	-8.806969e-001	2.356694e-001	-1.923314e-005	3.975530e-005	3.314763e-005	-1.297595e-005	9.034281e-001	-3.817891e-003
1261261.261	-8.801581e-001	2.381454e-001	-2.638339e-005	7.458899e-006	2.144811e-006	1.424165e-006	9.029109e-001	-4.097536e-003
1270970.971	-8.796912e-001	2.405865e-001	4.330948e-007	1.290193e-005	-6.557162e-006	1.810841e-005	9.031764e-001	-3.407447e-003
1280680.681	-8.786557e-001	2.410269e-001	-4.990871e-006	-3.794465e-005	-3.983760e-005	-6.820327e-006	9.028442e-001	-3.443816e-003
1290390.390	-8.781731e-001	2.421021e-001	1.367657e-006	-5.967522e-006	-6.142845e-005	2.816699e-005	9.029371e-001	-3.903643e-003
1300100.100	-8.771390e-001	2.434924e-001	-2.588685e-005	1.837505e-005	1.833644e-006	-6.463229e-006	9.030723e-001	-4.161429e-003
1309809.810	-8.766493e-001	2.444627e-001	-2.295416e-005	-5.224175e-006	1.276564e-006	-1.288205e-005	9.027467e-001	-3.908779e-003
1319519.520	-8.758160e-001	2.466598e-001	-1.001186e-005	-1.819423e-005	2.543582e-005	-1.511121e-005	9.023567e-001	-3.677699e-003
1329229.229	-8.755208e-001	2.484765e-001	3.752099e-005	-1.564778e-005	2.087727e-006	-3.197622e-005	9.032217e-001	-3.604198e-003
1338938.939	-8.743979e-001	2.500827e-001	6.058107e-006	-8.195493e-006	2.370123e-005	3.769692e-006	9.038320e-001	-3.873158e-003
1348648.649	-8.747572e-001	2.515985e-001	1.075853e-005	1.938593e-005	-1.622516e-006	-1.669050e-005	9.035446e-001	-4.388187e-003
1358358.358	-8.742952e-001	2.517951e-001	6.905095e-006	-7.882124e-006	-1.069723e-005	-1.225127e-005	9.026108e-001	-4.291327e-003
1368068.068	-8.726672e-001	2.532170e-001	-1.138721e-005	-1.508144e-005	-2.065672e-005	-1.888868e-005	9.027868e-001	-4.374324e-003
1377777.778	-8.713018e-001	2.554096e-001	4.711684e-006	-2.302066e-006	-1.980411e-007	-2.823252e-005	9.027130e-001	-3.677669e-003
1387487.487	-8.701895e-001	2.566308e-001	1.489793e-006	1.649323e-005	-3.513240e-005	-1.093618e-005	9.029764e-001	-4.510373e-003
1397197.197	-8.705074e-001	2.574015e-001	4.553645e-005	-4.602858e-005	-1.658819e-005	1.997409e-005	9.030109e-001	-4.187110e-003
1406906.907	-8.699871e-001	2.591765e-001	6.247759e-006	2.431061e-005	-2.193323e-006	2.629839e-005	9.030463e-001	-4.274099e-003
1416616.617	-8.691950e-001	2.606921e-001	2.972945e-005	2.392882e-005	-7.130462e-007	3.347728e-005	9.032709e-001	-3.731489e-003
1426326.326	-8.683813e-001	2.619223e-001	4.639666e-005	2.740535e-005	-2.766168e-006	-2.943411e-005	9.025767e-001	-4.001269e-003
1436036.036	-8.686448e-001	2.633745e-001	4.994674e-005	-5.657566e-006	-1.318888e-005	-6.577108e-005	9.031763e-001	-4.232902e-003
1445745.746	-8.674294e-001	2.644018e-001	-1.176076e-005	6.876284e-006	-8.877368e-006	9.459918e-007	9.024459e-001	-4.228929e-003
1455455.455	-8.665758e-001	2.653862e-001	4.373515e-005	4.288639e-005	-6.629479e-006	4.838614e-005	9.033957e-001	-3.677185e-003
1465165.165	-8.648846e-001	2.670796e-001	3.354572e-005	7.002606e-006	-1.980111e-005	6.829119e-006	9.029260e-001	-3.753072e-003
1474874.875	-8.648720e-001	2.688702e-001	-1.732488e-005	-5.436020e-005	-1.139778e-005	2.744917e-005	9.024210e-001	-3.788348e-003
1484584.585	-8.642693e-001	2.702707e-001	1.715113e-007	-4.027561e-005	-3.486806e-005	-9.457017e-006	9.034631e-001	-4.640482e-003
1494294.294	-8.634028e-001	2.716705e-001	4.653405e-005	-1.293340e-006	3.819207e-005	7.861281e-006	9.030400e-001	-4.319634e-003
1504004.004	-8.628365e-001	2.726970e-001	-4.344724e-007	8.099148e-006	5.673519e-005	4.436376e-005	9.031533e-001	-4.503612e-003
1513713.714	-8.621769e-001	2.739420e-001	-2.591026e-005	-3.096476e-005	-2.445691e-005	-3.306050e-005	9.028625e-001	-4.451007e-003
1523423.423	-8.617975e-001	2.761630e-001	4.659424e-005	-2.412778e-005	-1.391779e-005	9.661696e-006	9.034651e-001	-4.609965e-003
1533133.133	-8.607867e-001	2.773117e-001	-2.825624e-005	1.372463e-006	-2.852701e-005	1.851464e-005	9.028299e-001	-4.500806e-003
1542842.843	-8.607768e-001	2.790348e-001	2.199673e-005	2.090592e-005	4.247246e-006	1.528263e-005	9.034524e-001	-3.982664e-003
1552552.553	-8.597639e-001	2.806693e-001	2.829973e-006	-6.970497e-006	4.886471e-006	-2.857004e-005	9.026697e-001	-4.152831e-003
1562262.262	-8.585639e-001	2.806498e-001	-3.562336e-005	1.622642e-005	6.031419e-005	2.851005e-005	9.028386e-001	-3.938067e-003
1571971.972	-8.578374e-001	2.820151e-001	6.650317e-005	3.464394e-005	-2.106044e-005	-2.746430e-005	9.034584e-001	-4.347011e-003
1581681.682	-8.580685e-001	2.838235e-001	-7.849148e-005	1.778921e-005	3.799363e-006	-3.880551e-005	9.030913e-001	-4.563337e-003
1591391.391	-8.569045e-001	2.849895e-001	3.562024e-005	2.589216e-005	3.313204e-005	-4.231685e-006	9.038390e-001	-4.854535e-003
1601101.101	-8.563404e-001	2.856405e-001	-1.815724e-005	-2.267889e-005	1.211015e-005	-2.052686e-005	9.031053e-001	-4.818303e-003
1610810.811	-8.552651e-001	2.883718e-001	-1.598616e-005	-6.052453e-005	-1.909444e-006	4.285061e-005	9.026974e-001	-4.674204e-003
1620520.521	-8.546075e-001	2.894318e-001	1.719205e-005	1.141715e-005	7.763973e-006	-2.947159e-005	9.030321e-001	-4.700507e-003
1630230.230	-8.536280e-001	2.908505e-001	2.868934e-005	-3.345707e-005	9.757557e-006	-4.851542e-005	9.029951e-001	-4.944591e-003
1639939.940	-8.539230e-001	2.922330e-001	-4.712855e-006	-2.254573e-006	3.861068e-005	-1.787364e-005	9.030826e-001	-4.892094e-003
1649649.650	-8.529385e-001	2.941208e-001	-4.421824e-005	1.011177e-005	1.263382e-005	1.187909e-005	9.027511e-001	-4.974158e-003
1659359.359	-8.517843e-001	2.947997e-001	-6.002288e-006	1.311980e-005	3.141670e-005	-2.807627e-006	9.033075e-001	-4.874969e-003
1669069.069	-8.505095e-001	2.959666e-001	1.942395e-005	1.810383e-005	-1.292862e-005	-1.240799e-005	9.032782e-001	-4.907746e-003
1678778.779	-8.499720e-001	2.972149e-001	4.046544e-005	-1.808783e-005	2.243586e-005	2.845716e-005	9.027298e-001	-4.485547e-003
1688488.488	-8.491805e-001	2.986894e-001	-1.479573e-005	-1.721497e-005	2.020945e-005	1.537128e-005	9.029387e-001	-5.349711e-003
1698198.198	-8.479099e-001	3.001268e-001	-1.288903e-006	4.248523e-005	3.124478e-005	-5.702570e-006	9.037233e-001	-5.281375e-003
1707907.908	-8.472871e-001	3.015047e-001	1.454692e-005	2.367742e-005	-5.567198e-006	2.529802e-005	9.027648e-001	-5.238716e-003
1717617.618	-8.468484e-001	3.032940e-001	-3.945147e-006	4.592838e-005	1.248114e-005	2.426011e-005	9.032689e-001	-4.778099e-003
1727327.327	-8.469395e-001	3.048426e-001	-4.388937e-005	-3.342747e-005	-1.615035e-005	5.391845e-006	9.031246e-001	-5.881576e-003
1737037.037	-8.458762e-001	3.058555e-001	1.828266e-005	-3.259790e-005	-3.627440e-005	2.810796e-005	9.033522e-001	-4.979816e-003
1746746.747	-8.447777e-001	3.076229e-001	2.410163e-005	1.366422e-005	2.791359e-005	3.408084e-005	9.026662e-001	-5.277593e-003
1756456.456	-8.439018e-001	3.080959e-001	3.714837e-007	-1.068424e-005	3.261249e-005	-3.086986e-005	9.030891e-001	-5.284028e-003
1766166.166	-8.435559e-001	3.093217e-001	8.194088e-006	-8.203277e-006	3.030454e-005	5.831136e-006	9.031418e-001	-4.597986e-003
1775875.876	-8.423256e-001	3.098116e-001	3.132882e-005	-4.926308e-006	3.572532e-005	1.641828e-006	9.029621e-001	-4.806673e-003
1785585.586	-8.422896e-001	3.125901e-001	-4.423632e-006	3.108067e-005	3.076744e-005	5.016198e-006	9.029563e-001	-5.273365e-003
1795295.295	-8.418923e-001	3.140430e-001	-2.683144e-006	-1.456616e-005	-9.524057e-007	2.679692e-005	9.026403e-001	-5.744953e-003
