!Keysight Technologies,E5061B,MY49709559,B.05.06
!Date: Fri Apr 08 00:52:47 2022
!Data & Calibration Information:
!Freq	S11:SOLT2(ON)	S21:SOLT2(ON)	S12:SOLT2(ON)	S22:SOLT2(ON)
# Hz S RI R 50
300000.000	-9.899176e-001	7.949526e-003	-2.911186e-006	-5.003853e-005	-3.221180e-005	-1.447282e-005	9.038951e-001	-7.750653e-004
309709.710	-9.906186e-001	8.228597e-003	-2.340199e-005	1.352253e-005	-6.806347e-005	1.216296e-005	9.037454e-001	-9.659512e-004
319419.419	-9.900409e-001	8.760218e-003	-5.134484e-005	1.935708e-005	8.665722e-006	1.120595e-005	9.038684e-001	-1.095747e-003
329129.129	-9.895132e-001	9.899280e-003	3.291514e-006	2.243503e-005	4.450325e-006	4.439515e-005	9.040941e-001	-8.129838e-004
338838.839	-9.904187e-001	9.601739e-003	2.157013e-005	-4.423869e-005	3.556393e-005	-4.548655e-006	9.034726e-001	-6.682419e-004
348548.549	-9.910432e-001	9.503802e-003	1.832715e-005	7.307264e-005	-1.717764e-005	-1.887127e-006	9.034188e-001	-1.421529e-003
358258.258	-9.897095e-001	1.013094e-002	3.014971e-005	4.264744e-006	1.550964e-005	3.564600e-005	9.037164e-001	-9.510006e-004
367967.968	-9.899688e-001	1.056843e-002	-8.841211e-006	4.406813e-005	-9.232477e-006	-5.454838e-006	9.032292e-001	-1.092585e-003
377677.678	-9.891628e-001	1.010380e-002	-2.294284e-005	-6.184809e-005	1.427752e-005	1.025419e-007	9.040741e-001	-9.054155e-004
387387.387	-9.897644e-001	1.172491e-002	-2.071244e-005	-9.197313e-005	-6.501680e-006	-7.724053e-005	9.031307e-001	-1.586307e-003
397097.097	-9.905715e-001	1.269149e-002	9.947458e-006	-1.499781e-005	-1.024390e-005	4.820553e-005	9.033223e-001	-8.717045e-004
406806.807	-9.901843e-001	1.142725e-002	-7.766216e-006	6.744904e-006	-5.497015e-006	-9.028417e-006	9.028226e-001	-8.267861e-004
416516.517	-9.894770e-001	1.343697e-002	3.203071e-006	-5.318777e-006	-5.906144e-005	-4.547233e-005	9.036751e-001	-1.211082e-003
426226.226	-9.901439e-001	1.284802e-002	4.217822e-006	2.199959e-006	-5.032009e-006	1.209965e-005	9.037465e-001	-1.584672e-003
435935.936	-9.899273e-001	1.379409e-002	-4.797800e-005	5.507003e-005	-1.655236e-005	-2.487028e-005	9.035336e-001	-9.027548e-004
445645.646	-9.891014e-001	1.417174e-002	-9.526039e-006	-2.996985e-005	1.911549e-005	-3.178540e-005	9.029394e-001	-1.007841e-003
455355.355	-9.890063e-001	1.483871e-002	-1.684715e-005	-5.793522e-006	1.306412e-005	3.626507e-005	9.025021e-001	-6.530304e-004
465065.065	-9.892722e-001	1.539139e-002	-6.519633e-006	9.560350e-006	2.375213e-005	-3.896399e-005	9.032199e-001	-1.969768e-003
474774.775	-9.888364e-001	1.571380e-002	-1.215113e-005	3.299871e-005	-8.061091e-006	-1.533626e-005	9.032590e-001	-1.398120e-003
484484.484	-9.890058e-001	1.510412e-002	-3.417876e-006	1.752838e-008	2.537711e-005	-6.044190e-005	9.035629e-001	-1.248762e-003
494194.194	-9.893315e-001	1.558846e-002	-9.293321e-006	8.021605e-006	4.266522e-006	-3.704698e-005	9.038328e-001	-1.190136e-003
503903.904	-9.881941e-001	1.649051e-002	1.221299e-005	-4.067883e-006	-4.568218e-005	-2.178858e-005	9.040312e-001	-1.141480e-003
513613.614	-9.886454e-001	1.615212e-002	8.809757e-006	6.541982e-006	-5.049881e-005	3.927299e-005	9.031009e-001	-8.148237e-004
523323.323	-9.883945e-001	1.697679e-002	2.284164e-005	2.952236e-005	-3.796271e-005	-2.271810e-005	9.037005e-001	-2.129716e-003
533033.033	-9.896110e-001	1.705256e-002	1.120338e-005	1.613618e-005	1.449863e-005	-1.264121e-006	9.029080e-001	-8.490089e-004
542742.743	-9.891789e-001	1.690408e-002	3.489131e-005	2.070917e-005	3.697921e-006	-1.206905e-005	9.035751e-001	-2.290298e-003
552452.452	-9.890165e-001	1.801815e-002	-2.480703e-005	6.825539e-006	3.102746e-005	3.855450e-005	9.029334e-001	-2.299077e-003
562162.162	-9.887850e-001	1.753139e-002	-3.511861e-005	3.991225e-005	4.372507e-007	-4.693165e-005	9.028682e-001	-1.864409e-003
571871.872	-9.897596e-001	1.717565e-002	-1.333231e-005	-3.965353e-005	4.353509e-005	3.330773e-005	9.029614e-001	-2.064942e-003
581581.582	-9.881989e-001	1.843108e-002	-2.951970e-005	2.681429e-005	-1.597788e-005	-1.225853e-005	9.028283e-001	-1.876121e-003
591291.291	-9.882235e-001	1.888233e-002	3.737549e-006	1.444187e-005	6.898589e-005	7.902389e-005	9.032493e-001	-1.438438e-003
601001.001	-9.882641e-001	1.882949e-002	2.873446e-005	-6.003471e-006	-3.657102e-005	1.287926e-007	9.030121e-001	-2.079518e-003
610710.711	-9.891589e-001	1.883431e-002	-2.266781e-005	-1.776077e-005	-3.160291e-005	3.932085e-005	9.034042e-001	-1.832124e-003
620420.420	-9.885210e-001	1.908110e-002	-1.495234e-005	-7.377671e-005	9.056873e-006	-5.258241e-005	9.024081e-001	-2.035239e-003
630130.130	-9.886935e-001	1.995943e-002	1.252341e-005	-2.179327e-006	-1.658991e-005	-9.364414e-007	9.028807e-001	-1.695645e-003
639839.840	-9.884385e-001	1.961695e-002	1.796295e-005	-1.762569e-005	-1.640221e-005	1.881021e-005	9.033213e-001	-2.185334e-003
649549.550	-9.877694e-001	1.994808e-002	2.302876e-005	6.270719e-006	1.324760e-005	-1.369823e-005	9.029315e-001	-1.602866e-003
659259.259	-9.866957e-001	2.008292e-002	-3.180393e-005	9.937278e-006	-1.127641e-005	3.598672e-005	9.031978e-001	-2.203361e-003
668968.969	-9.874466e-001	1.996217e-002	-3.790719e-005	-5.063044e-005	2.082493e-005	-3.565921e-005	9.032805e-001	-1.857252e-003
678678.679	-9.879704e-001	2.042138e-002	-5.381752e-005	-2.359336e-005	-1.364769e-005	1.565215e-006	9.030951e-001	-2.332042e-003
688388.388	-9.878503e-001	2.104447e-002	1.925693e-005	1.175747e-005	-8.458402e-006	-2.633528e-005	9.023575e-001	-2.112345e-003
698098.098	-9.871489e-001	2.094568e-002	1.339717e-005	-4.049829e-006	1.039217e-005	-3.863868e-005	9.031704e-001	-2.379744e-003
707807.808	-9.873484e-001	2.158716e-002	-1.777681e-005	-2.588036e-005	-4.444124e-005	1.616498e-005	9.029368e-001	-2.619868e-003
717517.518	-9.868386e-001	2.216349e-002	-2.248223e-005	-1.773454e-005	2.581243e-005	1.162672e-005	9.024854e-001	-2.400271e-003
727227.227	-9.868156e-001	2.118494e-002	-4.043206e-007	-3.067124e-005	-6.500203e-005	-3.323665e-005	9.025535e-001	-1.932165e-003
736936.937	-9.872235e-001	2.211844e-002	8.471416e-006	1.622787e-005	2.543169e-006	-4.636481e-005	9.028353e-001	-2.355775e-003
746646.647	-9.870671e-001	2.225813e-002	6.069545e-006	-2.113441e-005	-7.992809e-005	6.266037e-006	9.029363e-001	-2.067768e-003
756356.356	-9.868026e-001	2.273632e-002	7.923148e-005	1.389819e-005	1.309875e-005	-1.057368e-005	9.036244e-001	-1.955609e-003
766066.066	-9.871961e-001	2.233791e-002	-1.642070e-005	1.782453e-005	-1.732737e-005	4.696115e-005	9.031044e-001	-2.314663e-003
775775.776	-9.857992e-001	2.351295e-002	-2.530873e-007	1.003976e-005	-2.384845e-005	-2.285910e-005	9.032465e-001	-1.213177e-003
785485.485	-9.874116e-001	2.340019e-002	1.907415e-005	1.664157e-005	4.888867e-005	2.650392e-005	9.031045e-001	-2.858550e-003
795195.195	-9.863822e-001	2.481135e-002	-3.798254e-006	-1.730866e-005	-9.268262e-006	2.645249e-005	9.031853e-001	-2.389360e-003
804904.905	-9.862875e-001	2.422790e-002	5.028629e-006	6.106682e-005	2.333022e-005	6.697667e-005	9.033723e-001	-2.246961e-003
814614.615	-9.859415e-001	2.374298e-002	2.201667e-005	-6.920521e-006	-5.907695e-005	-3.614474e-006	9.031560e-001	-1.862998e-003
824324.324	-9.865106e-001	2.443737e-002	-3.978735e-005	-4.543055e-005	2.275637e-005	2.566893e-005	9.034105e-001	-2.138198e-003
834034.034	-9.863911e-001	2.411324e-002	4.007368e-005	-1.928113e-006	-4.366732e-005	1.385020e-005	9.029158e-001	-2.379846e-003
843743.744	-9.856932e-001	2.478592e-002	-2.676212e-005	8.533178e-006	-5.478461e-005	-2.133911e-005	9.033644e-001	-2.151482e-003
853453.453	-9.862242e-001	2.489907e-002	1.595809e-005	-2.912836e-006	1.489080e-005	-6.116965e-005	9.035121e-001	-1.994100e-003
863163.163	-9.858051e-001	2.533983e-002	1.040635e-005	9.011373e-006	6.930969e-006	1.664606e-005	9.026847e-001	-2.206191e-003
872872.873	-9.856638e-001	2.546887e-002	1.219798e-005	1.149648e-005	2.085876e-005	-2.678374e-006	9.036977e-001	-1.457736e-003
882582.583	-9.868392e-001	2.485815e-002	-1.027895e-005	4.365934e-005	-3.041314e-005	8.017017e-008	9.035348e-001	-1.960271e-003
892292.292	-9.862297e-001	2.670378e-002	2.202060e-005	-4.682131e-006	2.896255e-005	-8.494034e-006	9.027738e-001	-2.468634e-003
902002.002	-9.859629e-001	2.584422e-002	2.045743e-005	2.397810e-005	7.287093e-006	-5.691453e-005	9.031982e-001	-2.663125e-003
911711.712	-9.865846e-001	2.566140e-002	-2.988804e-005	3.564994e-005	1.672011e-005	3.995676e-007	9.024604e-001	-2.682954e-003
921421.421	-9.851661e-001	2.640941e-002	-1.546459e-005	-7.253163e-006	4.819140e-005	-3.648865e-006	9.027981e-001	-2.593208e-003
931131.131	-9.860650e-001	2.703848e-002	-4.522962e-005	-7.030764e-005	4.288000e-005	1.304145e-005	9.030473e-001	-2.754806e-003
940840.841	-9.857193e-001	2.719710e-002	6.838371e-006	1.172569e-005	6.104211e-006	3.753499e-005	9.024471e-001	-2.470315e-003
950550.551	-9.849600e-001	2.773645e-002	-5.803424e-006	6.897737e-006	-3.832664e-006	-2.927217e-005	9.030871e-001	-2.981106e-003
960260.260	-9.851700e-001	2.821639e-002	-1.972490e-007	-2.303225e-005	1.232444e-005	3.490209e-006	9.032862e-001	-2.640716e-003
969969.970	-9.855063e-001	2.823284e-002	-9.898932e-006	2.299328e-005	-4.191146e-005	9.252735e-006	9.036921e-001	-3.043868e-003
979679.680	-9.855000e-001	2.844582e-002	2.253542e-005	5.480918e-005	3.401959e-005	-1.134784e-005	9.031275e-001	-2.358649e-003
989389.389	-9.854681e-001	2.886701e-002	1.551755e-005	-9.523009e-006	2.549776e-005	4.814976e-005	9.027810e-001	-2.481051e-003
999099.099	-9.852464e-001	2.775843e-002	1.079157e-005	5.426779e-005	2.369575e-005	-3.040526e-005	9.021218e-001	-2.689238e-003
1008808.809	-9.845491e-001	2.801112e-002	1.409791e-005	1.861601e-005	-3.161345e-005	9.701767e-006	9.020108e-001	-3.143427e-003
1018518.519	-9.841744e-001	2.880575e-002	-6.309572e-006	4.495247e-005	-5.835537e-005	-2.811606e-005	9.030074e-001	-2.802284e-003
1028228.228	-9.845335e-001	2.919732e-002	2.002619e-006	1.297603e-005	-4.906150e-005	-4.451146e-006	9.028472e-001	-2.819991e-003
1037937.938	-9.844449e-001	2.991374e-002	1.999579e-005	-2.369550e-005	-4.923330e-005	1.879962e-005	9.028079e-001	-3.194486e-003
1047647.648	-9.842587e-001	3.051316e-002	-5.080167e-005	-1.964488e-005	2.997313e-005	8.499326e-007	9.027245e-001	-3.175400e-003
1057357.357	-9.844101e-001	3.015337e-002	-2.729413e-006	1.687212e-006	-3.248524e-005	3.272348e-005	9.032370e-001	-3.016637e-003
1067067.067	-9.842666e-001	2.999783e-002	2.246244e-005	2.438361e-005	-1.293235e-005	1.488633e-006	9.033025e-001	-3.362113e-003
1076776.777	-9.846845e-001	3.082854e-002	-2.149119e-005	-3.273270e-005	-1.271774e-005	4.420512e-005	9.028902e-001	-2.966881e-003
1086486.486	-9.846852e-001	3.099276e-002	1.280254e-005	1.935469e-005	5.444376e-006	-3.067528e-006	9.032461e-001	-3.298504e-003
1096196.196	-9.848797e-001	3.090233e-002	-5.859893e-006	4.252862e-005	2.057887e-005	5.102467e-005	9.029906e-001	-3.193326e-003
1105905.906	-9.845755e-001	3.134618e-002	1.752508e-005	1.456976e-005	-8.428033e-006	-4.685274e-006	9.027261e-001	-3.417852e-003
1115615.616	-9.842928e-001	3.215635e-002	4.569443e-005	6.613696e-006	-2.474788e-005	-3.878123e-005	9.029617e-001	-3.097234e-003
1125325.325	-9.842609e-001	3.247619e-002	-5.345828e-005	2.275602e-005	-1.243964e-005	6.303910e-005	9.028919e-001	-3.139710e-003
1135035.035	-9.848874e-001	3.264231e-002	-1.072871e-005	7.278029e-006	-4.286691e-005	-3.038785e-005	9.034325e-001	-2.960033e-003
1144744.745	-9.840419e-001	3.233001e-002	-1.387838e-005	4.138633e-006	-4.233738e-005	-1.640070e-005	9.029978e-001	-2.703754e-003
1154454.454	-9.834992e-001	3.212976e-002	7.139814e-006	9.525192e-006	-5.486549e-005	1.662178e-005	9.028236e-001	-2.516625e-003
1164164.164	-9.834326e-001	3.329172e-002	6.037128e-005	-8.038386e-006	1.460500e-005	1.389567e-005	9.026363e-001	-3.503479e-003
1173873.874	-9.839558e-001	3.351307e-002	-4.918050e-005	2.075517e-005	-1.702891e-005	3.522958e-005	9.032148e-001	-3.443896e-003
1183583.584	-9.844864e-001	3.321783e-002	3.280977e-005	-4.470885e-005	-2.276451e-005	3.615373e-005	9.034912e-001	-3.018823e-003
1193293.293	-9.832013e-001	3.416925e-002	6.389318e-006	9.470031e-006	-1.885181e-005	2.208973e-006	9.031003e-001	-3.062367e-003
1203003.003	-9.830585e-001	3.355295e-002	2.462708e-006	-6.661355e-006	-7.290677e-005	1.112588e-005	9.030154e-001	-3.367974e-003
1212712.713	-9.827878e-001	3.387232e-002	-1.178734e-005	5.090372e-006	1.974841e-005	3.661059e-005	9.028017e-001	-3.873988e-003
1222422.422	-9.835123e-001	3.448084e-002	2.645996e-006	-3.726884e-005	-4.206122e-005	1.090425e-005	9.031396e-001	-3.499273e-003
1232132.132	-9.827868e-001	3.500776e-002	-3.823820e-006	-6.129709e-006	6.174537e-005	-3.612660e-006	9.021060e-001	-3.255551e-003
1241841.842	-9.827024e-001	3.453951e-002	-8.498251e-006	1.369168e-005	-3.827699e-005	3.042719e-005	9.025360e-001	-3.357096e-003
1251551.552	-9.836482e-001	3.418909e-002	-2.147070e-005	9.496686e-006	3.631116e-005	-8.426969e-006	9.035304e-001	-4.030945e-003
1261261.261	-9.838544e-001	3.543749e-002	-1.194437e-005	2.920773e-005	2.790202e-005	-1.976580e-005	9.034229e-001	-4.013819e-003
1270970.971	-9.840498e-001	3.650000e-002	-6.076865e-005	1.100087e-005	9.029148e-007	2.772658e-005	9.029908e-001	-3.089231e-003
1280680.681	-9.828049e-001	3.742874e-002	4.899543e-005	5.661611e-005	-8.171911e-007	3.817298e-005	9.023234e-001	-3.406335e-003
1290390.390	-9.839758e-001	3.562790e-002	-3.059650e-005	-2.538681e-005	-3.631690e-005	-1.325926e-005	9.029743e-001	-3.737305e-003
1300100.100	-9.827815e-001	3.717928e-002	-3.322103e-005	9.917114e-006	4.964645e-005	-5.547959e-005	9.026163e-001	-4.393829e-003
1309809.810	-9.831715e-001	3.660199e-002	3.762775e-006	-2.169990e-006	-1.961638e-005	-8.717478e-006	9.031935e-001	-3.964471e-003
1319519.520	-9.825514e-001	3.758534e-002	5.802057e-006	-5.889489e-006	-5.191742e-005	-3.663619e-005	9.026827e-001	-3.682138e-003
1329229.229	-9.830636e-001	3.694278e-002	3.566024e-006	1.058235e-005	-1.191331e-005	-4.703218e-005	9.028928e-001	-3.848110e-003
1338938.939	-9.831677e-001	3.820835e-002	7.309391e-006	1.456578e-005	-1.687710e-005	-5.395622e-006	9.037012e-001	-3.552519e-003
1348648.649	-9.839546e-001	3.903219e-002	-1.727920e-006	1.400588e-005	-2.379605e-005	-1.832275e-005	9.026282e-001	-4.108085e-003
1358358.358	-9.837574e-001	3.724941e-002	1.058714e-006	-1.826094e-005	5.643640e-006	-5.343492e-006	9.032622e-001	-3.522136e-003
1368068.068	-9.828689e-001	3.763437e-002	-7.728143e-006	-4.995334e-006	5.636647e-005	5.883853e-005	9.030373e-001	-3.929584e-003
1377777.778	-9.824511e-001	3.817977e-002	-1.858524e-006	-1.974871e-005	-3.385052e-007	8.076592e-006	9.023752e-001	-4.165768e-003
1387487.487	-9.821254e-001	3.916242e-002	-2.242780e-005	2.935082e-005	-4.157173e-007	-4.329465e-007	9.023767e-001	-3.502202e-003
1397197.197	-9.819999e-001	3.871429e-002	4.585436e-006	-2.963731e-007	-3.904181e-005	-1.787087e-005	9.032537e-001	-4.506735e-003
1406906.907	-9.825964e-001	3.911936e-002	-1.721893e-005	-6.632857e-006	6.735849e-006	-1.483862e-005	9.031265e-001	-4.592242e-003
1416616.617	-9.829736e-001	3.907159e-002	5.041785e-005	-2.652904e-005	-4.284137e-005	5.646533e-006	9.028055e-001	-4.058061e-003
1426326.326	-9.822682e-001	3.952197e-002	-1.479553e-006	-1.526491e-005	-2.853296e-005	-5.332851e-005	9.030458e-001	-4.320724e-003
1436036.036	-9.826777e-001	3.923789e-002	1.249237e-005	7.997163e-006	1.293417e-005	1.416891e-005	9.029151e-001	-4.802062e-003
1445745.746	-9.825119e-001	3.895497e-002	4.047232e-005	-8.144690e-006	-3.298120e-005	-1.039767e-005	9.022701e-001	-4.516737e-003
1455455.455	-9.820678e-001	3.977985e-002	-4.696955e-007	-2.607474e-005	4.729284e-005	3.189125e-005	9.026355e-001	-4.123196e-003
1465165.165	-9.820125e-001	4.007812e-002	2.770978e-006	7.222399e-005	3.622606e-005	-1.035413e-005	9.024648e-001	-3.654743e-003
1474874.875	-9.818246e-001	4.057755e-002	1.245520e-006	-8.436417e-006	2.485270e-005	1.614010e-006	9.028859e-001	-4.119272e-003
1484584.585	-9.817891e-001	4.051294e-002	7.786448e-006	-8.463665e-006	1.484892e-005	3.384815e-005	9.029410e-001	-4.463188e-003
1494294.294	-9.821758e-001	4.069699e-002	1.228927e-005	-1.798821e-005	-8.653164e-006	-2.544261e-005	9.028723e-001	-4.221329e-003
1504004.004	-9.820729e-001	4.088518e-002	7.289161e-006	1.013718e-005	-1.856401e-006	-1.201516e-005	9.027868e-001	-4.671232e-003
1513713.714	-9.819742e-001	4.144419e-002	-7.020868e-005	7.672159e-006	-1.824483e-005	-3.782117e-006	9.030043e-001	-4.715967e-003
1523423.423	-9.821772e-001	4.163778e-002	-3.281282e-005	3.770641e-005	5.795973e-005	-3.074574e-005	9.032365e-001	-4.719461e-003
1533133.133	-9.819476e-001	4.200623e-002	5.150822e-005	1.512527e-005	5.210405e-005	1.271500e-005	9.026913e-001	-4.375378e-003
1542842.843	-9.827456e-001	4.148355e-002	8.975130e-006	6.194473e-007	6.748863e-006	2.384013e-005	9.034844e-001	-5.038127e-003
1552552.553	-9.824902e-001	4.276338e-002	1.240891e-005	-2.251212e-005	2.077514e-005	-1.326485e-005	9.026215e-001	-4.713599e-003
1562262.262	-9.815814e-001	4.166639e-002	8.960492e-006	1.299224e-005	-7.573179e-006	9.878628e-006	9.024744e-001	-4.309908e-003
1571971.972	-9.814079e-001	4.276546e-002	4.923946e-005	1.134789e-005	-5.484379e-007	-6.908738e-005	9.030059e-001	-4.743582e-003
1581681.682	-9.822001e-001	4.335492e-002	-1.854505e-005	-8.975773e-006	4.286261e-005	3.976428e-005	9.029161e-001	-4.714329e-003
1591391.391	-9.819702e-001	4.312287e-002	-3.924620e-005	-3.182990e-006	-1.346804e-005	-1.948827e-006	9.034843e-001	-4.664905e-003
1601101.101	-9.814275e-001	4.269968e-002	-4.886559e-005	-1.426267e-005	-3.308341e-005	1.435721e-006	9.030581e-001	-4.704968e-003
1610810.811	-9.814637e-001	4.388959e-002	3.503039e-005	3.555027e-005	5.537786e-005	-2.321556e-005	9.024078e-001	-5.360153e-003
1620520.521	-9.820032e-001	4.433568e-002	2.318231e-005	-1.596132e-005	2.346793e-005	2.625934e-005	9.029501e-001	-4.669960e-003
1630230.230	-9.816143e-001	4.405144e-002	-1.376726e-005	1.378829e-005	1.416046e-005	8.229229e-006	9.024859e-001	-4.768787e-003
1639939.940	-9.819450e-001	4.493341e-002	9.551781e-006	1.091185e-005	-1.740493e-005	-1.968995e-005	9.033185e-001	-4.948832e-003
1649649.650	-9.815285e-001	4.511537e-002	-1.999621e-006	1.330739e-005	2.392702e-006	-3.442948e-005	9.029540e-001	-5.065133e-003
1659359.359	-9.812023e-001	4.524778e-002	2.821767e-006	-5.630351e-006	-1.478685e-005	-1.886056e-005	9.031508e-001	-4.930120e-003
1669069.069	-9.809119e-001	4.612173e-002	-2.501248e-005	-9.554412e-006	4.876790e-005	-2.805934e-006	9.030086e-001	-4.827495e-003
1678778.779	-9.813603e-001	4.660527e-002	7.287081e-005	6.596591e-006	3.981104e-005	-1.286316e-005	9.031885e-001	-4.580120e-003
1688488.488	-9.807681e-001	4.615150e-002	-1.234964e-005	2.351840e-005	1.057734e-005	1.228817e-006	9.027861e-001	-4.990240e-003
1698198.198	-9.805527e-001	4.689148e-002	-1.652240e-005	1.477633e-005	-3.365139e-005	2.396775e-005	9.029339e-001	-5.092616e-003
1707907.908	-9.807748e-001	4.677618e-002	1.211533e-005	-1.720481e-005	1.856002e-005	2.321180e-006	9.027978e-001	-5.000982e-003
1717617.618	-9.805516e-001	4.740504e-002	-3.143847e-006	4.490666e-005	-6.433976e-006	1.849676e-005	9.023917e-001	-5.530234e-003
1727327.327	-9.811486e-001	4.707374e-002	-4.521995e-005	3.193470e-005	6.962207e-005	-3.098887e-006	9.033792e-001	-5.203360e-003
1737037.037	-9.816819e-001	4.714345e-002	-3.387114e-006	-2.682932e-005	-5.016775e-006	-3.204024e-005	9.036087e-001	-5.078130e-003
1746746.747	-9.806100e-001	4.834503e-002	1.885165e-005	2.173242e-005	2.165455e-005	-3.487482e-005	9.023579e-001	-5.144084e-003
1756456.456	-9.801217e-001	4.821511e-002	-3.798196e-005	-6.241014e-006	-4.859142e-005	-2.471801e-005	9.030131e-001	-5.439254e-003
1766166.166	-9.803247e-001	4.756783e-002	1.979576e-005	-3.798817e-006	-1.929051e-005	-1.044657e-005	9.027761e-001	-4.968459e-003
1775875.876	-9.795181e-001	4.729050e-002	-3.915211e-006	7.526111e-006	9.878572e-006	8.649389e-006	9.031240e-001	-4.962001e-003
1785585.586	-9.811621e-001	4.859058e-002	3.669217e-005	9.514843e-006	-3.910689e-005	-1.717664e-005	9.022910e-001	-5.070358e-003
1795295.295	-9.808588e-001	4.856483e-002	2.835942e-005	-2.289631e-005	-2.784578e-005	7.324514e-005	9.026771e-001	-5.607695e-003
