!Keysight Technologies,E5061B,MY49709559,B.05.06
!Date: Fri Apr 08 00:56:01 2022
!Data & Calibration Information:
!Freq	S11:SOLT2(ON)	S21:SOLT2(ON)	S12:SOLT2(ON)	S22:SOLT2(ON)
# Hz S RI R 50
300000.000	9.655695e-001	2.563616e-001	2.779355e-005	4.986217e-005	-3.770364e-005	1.202144e-005	9.043756e-001	-1.110865e-003
309709.710	9.679612e-001	2.475961e-001	2.071150e-006	-3.062868e-005	-1.770711e-005	3.693080e-006	9.038844e-001	-7.722971e-004
319419.419	9.693515e-001	2.391393e-001	1.671316e-007	-5.376809e-006	1.150178e-005	2.549357e-006	9.038727e-001	-3.919228e-004
329129.129	9.719432e-001	2.311424e-001	3.330656e-005	-1.480835e-005	-3.973170e-005	-2.449521e-005	9.036424e-001	-1.188537e-003
338838.839	9.731446e-001	2.259164e-001	8.368856e-006	4.447859e-006	-4.838990e-005	-2.381649e-006	9.035387e-001	-8.594024e-004
348548.549	9.751885e-001	2.192248e-001	-5.496703e-006	2.593823e-005	-3.612320e-006	-3.761893e-005	9.033501e-001	-5.621033e-004
358258.258	9.762897e-001	2.127188e-001	2.767531e-005	2.672051e-005	-4.809474e-006	-3.624649e-005	9.039935e-001	-9.000813e-004
367967.968	9.773623e-001	2.059600e-001	2.171912e-006	1.561471e-005	6.535254e-006	-1.203780e-005	9.032699e-001	-1.291062e-003
377677.678	9.793726e-001	2.003202e-001	-1.797342e-005	-4.469717e-005	-1.034960e-005	3.627866e-005	9.033787e-001	-5.530710e-004
387387.387	9.806401e-001	1.952999e-001	1.803804e-006	-2.001923e-005	5.425312e-005	3.382482e-005	9.038655e-001	-1.333072e-003
397097.097	9.804817e-001	1.888189e-001	9.477876e-006	-3.607325e-006	2.270734e-005	5.369225e-006	9.032534e-001	-4.659988e-004
406806.807	9.827140e-001	1.842908e-001	-1.874591e-005	-1.376321e-005	1.259759e-006	2.195813e-005	9.026043e-001	-8.673939e-004
416516.517	9.832649e-001	1.786129e-001	-2.424126e-005	-1.399916e-005	1.438309e-005	-3.321955e-005	9.032966e-001	-1.017303e-003
426226.226	9.841588e-001	1.749540e-001	-2.916404e-006	-3.288530e-006	-1.776175e-005	-3.231240e-005	9.035816e-001	-1.003594e-003
435935.936	9.843358e-001	1.697810e-001	3.779836e-005	-1.274506e-006	1.845693e-005	-3.309363e-005	9.033297e-001	-6.111095e-004
445645.646	9.850026e-001	1.661520e-001	1.005541e-005	-3.076162e-005	3.922917e-006	-3.427959e-005	9.037527e-001	-9.688259e-004
455355.355	9.864599e-001	1.619647e-001	2.024603e-005	-1.842687e-005	-2.323148e-005	2.797336e-005	9.030007e-001	-1.207587e-003
465065.065	9.864383e-001	1.580830e-001	-1.575590e-005	-1.788856e-005	3.831396e-005	-2.484954e-005	9.030364e-001	-1.498697e-003
474774.775	9.876115e-001	1.545748e-001	-1.801283e-005	3.195791e-005	3.596052e-005	3.136815e-005	9.038419e-001	-1.571902e-003
484484.484	9.881306e-001	1.493222e-001	-3.942476e-006	8.562658e-006	9.852005e-006	5.227723e-006	9.034015e-001	-8.936731e-004
494194.194	9.878565e-001	1.464894e-001	1.033939e-006	4.664327e-006	-1.503362e-005	3.977562e-006	9.041826e-001	-1.491258e-003
503903.904	9.891377e-001	1.429115e-001	-5.408032e-005	-3.476467e-006	3.651969e-005	-2.963712e-005	9.033777e-001	-9.806456e-004
513613.614	9.895312e-001	1.395850e-001	2.889987e-005	3.692770e-005	-3.747353e-005	4.345438e-006	9.035731e-001	-1.174549e-003
523323.323	9.902497e-001	1.367194e-001	3.434200e-005	6.739016e-006	1.635875e-005	-2.432122e-005	9.030365e-001	-2.007312e-003
533033.033	9.903312e-001	1.337063e-001	2.441677e-005	-4.902647e-005	1.683759e-005	-1.056480e-005	9.032443e-001	-1.274407e-003
542742.743	9.906921e-001	1.299715e-001	2.210422e-005	2.031461e-005	-2.162101e-005	-4.810278e-006	9.030198e-001	-2.239731e-003
552452.452	9.910074e-001	1.271760e-001	-4.992577e-006	3.447681e-005	3.758395e-005	4.282643e-005	9.031286e-001	-2.270820e-003
562162.162	9.915432e-001	1.239744e-001	3.300849e-005	-4.658754e-006	1.837843e-005	2.057532e-005	9.028330e-001	-1.480579e-003
571871.872	9.926459e-001	1.220098e-001	5.131374e-005	-4.484649e-005	3.049234e-005	-2.805941e-005	9.036925e-001	-1.820424e-003
581581.582	9.932417e-001	1.194917e-001	-1.737836e-005	1.553855e-006	5.012740e-005	6.784425e-005	9.036669e-001	-1.650768e-003
591291.291	9.924141e-001	1.163373e-001	2.276845e-006	-3.295965e-005	7.546370e-006	-5.763241e-006	9.031563e-001	-1.662865e-003
601001.001	9.933698e-001	1.135088e-001	-3.869967e-005	-5.075344e-006	2.866785e-005	-1.050768e-005	9.032425e-001	-1.837756e-003
610710.711	9.935009e-001	1.101536e-001	2.622692e-005	-1.028791e-005	-2.798928e-005	2.809583e-005	9.025043e-001	-1.664550e-003
620420.420	9.937216e-001	1.096493e-001	8.011327e-007	-1.083027e-005	2.926408e-005	-5.671275e-006	9.031063e-001	-1.403235e-003
630130.130	9.941094e-001	1.062650e-001	9.268000e-006	8.065641e-006	1.553224e-005	-2.047017e-005	9.033091e-001	-1.743246e-003
639839.840	9.939773e-001	1.043338e-001	-6.144115e-005	-2.405697e-006	-2.891295e-005	2.377307e-005	9.031693e-001	-2.017131e-003
649549.550	9.945036e-001	1.018166e-001	-3.877304e-005	-4.933876e-005	-6.049354e-006	-1.296332e-005	9.026985e-001	-1.850257e-003
659259.259	9.949041e-001	9.936833e-002	9.377761e-006	-1.713076e-006	-2.338817e-005	-2.717654e-005	9.031409e-001	-1.842321e-003
668968.969	9.943742e-001	9.808580e-002	2.737025e-006	-4.427659e-006	9.372937e-006	1.565178e-005	9.034904e-001	-1.692950e-003
678678.679	9.950913e-001	9.591805e-002	-5.417781e-006	-9.345309e-006	1.013183e-005	1.445771e-005	9.032064e-001	-1.719309e-003
688388.388	9.950464e-001	9.363571e-002	7.265643e-007	4.235177e-005	-4.293215e-007	-4.954313e-005	9.029218e-001	-1.869721e-003
698098.098	9.949697e-001	9.210801e-002	1.812571e-005	7.652858e-006	1.785187e-006	-4.828261e-006	9.031903e-001	-1.937712e-003
707807.808	9.953241e-001	9.008679e-002	3.453640e-006	4.449045e-005	-2.925291e-005	-3.226021e-006	9.027956e-001	-2.019657e-003
717517.518	9.953417e-001	8.719995e-002	1.247716e-005	-1.120708e-005	2.136175e-005	-6.669483e-005	9.033806e-001	-2.352964e-003
727227.227	9.958936e-001	8.638465e-002	-5.852853e-006	6.280176e-005	-1.180076e-005	-6.040752e-005	9.020317e-001	-2.162493e-003
736936.937	9.960241e-001	8.465233e-002	6.417141e-006	1.936397e-005	-1.360327e-005	-2.247759e-005	9.027574e-001	-1.512268e-003
746646.647	9.957508e-001	8.339098e-002	-2.756958e-005	3.753693e-005	6.351621e-006	-1.094748e-005	9.029393e-001	-2.072022e-003
756356.356	9.967026e-001	8.122237e-002	-1.383230e-005	-6.961940e-005	-1.850628e-005	-7.620182e-006	9.031559e-001	-2.097436e-003
766066.066	9.968527e-001	7.874093e-002	2.173806e-005	-2.339016e-005	-1.201698e-005	1.158169e-005	9.029309e-001	-2.457266e-003
775775.776	9.965247e-001	7.763828e-002	-2.226329e-005	1.411926e-005	1.026234e-005	-1.023184e-006	9.034865e-001	-1.872819e-003
785485.485	9.966120e-001	7.523684e-002	2.301924e-006	1.474995e-005	-3.709015e-005	-1.190549e-005	9.033180e-001	-2.144469e-003
795195.195	9.972598e-001	7.450750e-002	3.386639e-005	-8.042650e-006	4.351157e-006	-3.300123e-005	9.028324e-001	-2.418908e-003
804904.905	9.970902e-001	7.322358e-002	6.117502e-006	1.482474e-005	8.306484e-006	-4.135723e-006	9.031591e-001	-1.774653e-003
814614.615	9.967817e-001	7.060042e-002	4.442116e-005	-1.090333e-005	2.494818e-005	8.059133e-006	9.029862e-001	-2.289998e-003
824324.324	9.962761e-001	6.947428e-002	1.088937e-005	-1.659634e-006	9.389004e-006	1.741780e-005	9.030685e-001	-2.157932e-003
834034.034	9.968638e-001	6.846001e-002	2.730781e-005	-9.928017e-006	4.572539e-005	-5.986728e-005	9.033133e-001	-2.137902e-003
843743.744	9.975359e-001	6.696406e-002	9.226995e-006	-3.301320e-006	1.354503e-005	-2.181332e-005	9.035753e-001	-2.316227e-003
853453.453	9.980723e-001	6.509439e-002	-1.413153e-005	6.443851e-005	1.039586e-005	3.092530e-005	9.028457e-001	-1.741085e-003
863163.163	9.975961e-001	6.378276e-002	3.741112e-005	-1.331123e-005	-6.521034e-006	-4.872361e-005	9.027170e-001	-2.195518e-003
872872.873	9.970641e-001	6.251922e-002	-8.449367e-006	3.363134e-005	4.861870e-006	-9.863829e-006	9.033431e-001	-1.767311e-003
882582.583	9.969637e-001	6.173480e-002	-4.405655e-005	-2.027822e-005	6.371733e-006	-4.702704e-005	9.028374e-001	-2.313589e-003
892292.292	9.974131e-001	6.010864e-002	1.640181e-005	-1.280158e-005	2.663770e-005	-3.032632e-005	9.037994e-001	-2.517728e-003
902002.002	9.970918e-001	5.820579e-002	1.915290e-006	-1.617442e-005	5.336748e-006	2.483944e-005	9.030292e-001	-2.479702e-003
911711.712	9.985948e-001	5.679690e-002	2.904773e-005	-3.361163e-005	2.444801e-005	3.136313e-005	9.024208e-001	-2.000732e-003
921421.421	9.975799e-001	5.612422e-002	3.463954e-006	1.429119e-005	-2.792341e-005	-3.629121e-005	9.030037e-001	-2.378882e-003
931131.131	9.967150e-001	5.477922e-002	5.979695e-006	4.127993e-005	2.632952e-005	3.074567e-005	9.032541e-001	-2.533012e-003
940840.841	9.968847e-001	5.349997e-002	-1.570606e-005	3.136151e-006	3.987568e-006	1.795787e-005	9.030957e-001	-2.288064e-003
950550.551	9.980912e-001	5.161369e-002	5.931224e-005	1.453383e-005	-5.376370e-005	-8.615611e-006	9.029418e-001	-2.727870e-003
960260.260	9.977478e-001	5.074131e-002	-2.375099e-005	2.685494e-005	3.417691e-005	4.936946e-005	9.030080e-001	-2.243859e-003
969969.970	9.980197e-001	5.036900e-002	-7.841657e-006	1.132472e-005	3.761456e-006	-3.611769e-007	9.037397e-001	-2.987359e-003
979679.680	9.977493e-001	4.909344e-002	5.268396e-006	7.132236e-007	1.055128e-005	-1.473592e-005	9.029711e-001	-2.489197e-003
989389.389	9.977072e-001	4.767710e-002	-1.447046e-005	-2.596613e-005	-3.236883e-005	-2.168814e-005	9.025862e-001	-2.366046e-003
999099.099	9.976393e-001	4.641878e-002	-5.053313e-006	-9.550070e-006	-1.892076e-005	-2.906963e-006	9.016102e-001	-2.695086e-003
1008808.809	9.983325e-001	4.611867e-002	-8.386484e-006	6.374758e-005	2.832055e-005	-7.366139e-006	9.025307e-001	-2.421605e-003
1018518.519	9.975568e-001	4.412750e-002	9.945536e-006	2.201128e-005	-1.152059e-005	-2.587389e-005	9.029524e-001	-2.534822e-003
1028228.228	9.979700e-001	4.302905e-002	7.431992e-005	-2.785924e-005	4.469678e-006	1.025597e-005	9.032956e-001	-2.115122e-003
1037937.938	9.980494e-001	4.195610e-002	2.642482e-006	-1.645101e-005	-1.449301e-005	3.849824e-005	9.028243e-001	-2.718769e-003
1047647.648	9.990739e-001	4.096519e-002	-7.720064e-005	-1.282935e-005	-5.571939e-007	-2.328425e-005	9.030996e-001	-3.299362e-003
1057357.357	9.986181e-001	3.977592e-002	-1.839916e-005	-1.038240e-005	1.267307e-005	2.360961e-005	9.032752e-001	-2.775569e-003
1067067.067	9.983786e-001	3.888782e-002	1.276769e-005	-1.029970e-005	2.131208e-005	-2.869512e-005	9.030698e-001	-2.739522e-003
1076776.777	9.986225e-001	3.776261e-002	4.774264e-005	1.111799e-005	-1.121594e-005	-9.691329e-006	9.029903e-001	-3.295217e-003
1086486.486	9.989082e-001	3.733035e-002	-2.807281e-005	-4.253184e-005	-3.381111e-005	-2.479419e-005	9.030489e-001	-3.265811e-003
1096196.196	9.986618e-001	3.585978e-002	-1.698592e-005	-8.985632e-006	-6.102338e-006	1.285323e-005	9.033475e-001	-2.680699e-003
1105905.906	9.987253e-001	3.592594e-002	1.711660e-005	1.614959e-005	-2.725935e-006	-6.056757e-007	9.032031e-001	-3.461102e-003
1115615.616	9.988734e-001	3.433315e-002	1.025907e-005	-2.343686e-005	1.470342e-005	-8.457683e-006	9.023811e-001	-3.287182e-003
1125325.325	9.978342e-001	3.337499e-002	2.071384e-005	-1.556197e-006	6.432500e-006	-8.036765e-006	9.035970e-001	-2.910434e-003
1135035.035	9.981820e-001	3.170372e-002	-6.439621e-006	-2.808863e-005	3.973743e-005	1.815506e-005	9.031277e-001	-2.758644e-003
1144744.745	9.987975e-001	3.139271e-002	2.270055e-005	3.030229e-005	4.217679e-005	4.048869e-005	9.032137e-001	-2.690500e-003
1154454.454	9.984357e-001	2.980913e-002	-3.104129e-005	-4.866539e-005	-3.686661e-005	-4.551820e-005	9.027900e-001	-2.698421e-003
1164164.164	9.988417e-001	2.923176e-002	3.871161e-005	-1.136824e-006	-1.728964e-005	6.058292e-005	9.034157e-001	-3.272272e-003
1173873.874	9.984526e-001	2.913112e-002	-5.175390e-006	-1.440986e-005	3.173547e-006	1.365686e-005	9.030487e-001	-3.412435e-003
1183583.584	9.988267e-001	2.726153e-002	-4.621375e-005	-2.030194e-006	-9.227772e-006	-3.430930e-006	9.035493e-001	-3.361693e-003
1193293.293	9.990397e-001	2.606606e-002	-3.646290e-005	-2.632621e-005	-1.302659e-005	-4.026337e-006	9.026784e-001	-3.392564e-003
1203003.003	9.988680e-001	2.615079e-002	1.371210e-005	-7.320373e-006	9.655258e-006	-8.460022e-005	9.038275e-001	-3.192437e-003
1212712.713	9.989337e-001	2.485438e-002	2.639384e-005	-7.232340e-006	-1.258519e-005	-2.460257e-005	9.029171e-001	-3.570105e-003
1222422.422	9.988619e-001	2.411484e-002	7.033265e-005	1.344572e-005	-7.593080e-006	2.368099e-005	9.031221e-001	-3.989803e-003
1232132.132	9.984768e-001	2.329632e-002	-1.193404e-005	4.480670e-006	-1.702751e-005	-1.911775e-006	9.027034e-001	-3.889395e-003
1241841.842	9.984447e-001	2.169933e-002	2.301503e-005	4.636218e-006	6.092080e-006	7.782548e-007	9.029900e-001	-3.619341e-003
1251551.552	9.982651e-001	2.102343e-002	-3.423257e-005	-1.351945e-005	7.121525e-006	6.160322e-007	9.031033e-001	-4.137509e-003
1261261.261	9.981495e-001	2.061185e-002	-3.154433e-005	4.159642e-006	5.413602e-005	-2.263076e-005	9.033754e-001	-4.577833e-003
1270970.971	9.987377e-001	2.035041e-002	-3.790401e-005	7.999775e-006	6.695187e-007	1.634392e-005	9.027678e-001	-3.850253e-003
1280680.681	9.983950e-001	1.903175e-002	3.818531e-005	-1.055603e-005	2.362735e-005	-1.871611e-005	9.028697e-001	-3.263120e-003
1290390.390	9.988836e-001	1.791732e-002	2.711309e-006	-2.743019e-005	-3.822985e-005	-8.319451e-006	9.032430e-001	-3.623035e-003
1300100.100	9.982453e-001	1.762293e-002	1.103107e-005	-1.494820e-005	-1.959454e-005	-3.281232e-007	9.034604e-001	-3.673303e-003
1309809.810	9.986490e-001	1.682272e-002	7.902118e-006	-1.811804e-005	2.686887e-005	1.312663e-005	9.041020e-001	-3.965527e-003
1319519.520	9.983712e-001	1.641802e-002	-1.167284e-005	-8.567694e-006	2.114446e-005	4.922323e-005	9.028331e-001	-3.757387e-003
1329229.229	9.987491e-001	1.529531e-002	-1.627894e-005	1.369430e-005	1.681592e-005	7.390455e-006	9.034285e-001	-3.826798e-003
1338938.939	9.995116e-001	1.440725e-002	-1.241330e-005	1.250507e-005	2.353972e-006	3.138721e-005	9.029049e-001	-4.036561e-003
1348648.649	9.985049e-001	1.346321e-002	-6.843941e-006	8.925422e-006	5.613423e-005	9.924944e-006	9.034495e-001	-3.801144e-003
1358358.358	9.983742e-001	1.260594e-002	-4.282158e-005	5.164946e-005	4.786977e-006	-1.834082e-006	9.029699e-001	-3.623501e-003
1368068.068	9.985580e-001	1.275693e-002	7.649648e-006	-1.925977e-006	1.983320e-005	-1.594221e-005	9.032596e-001	-4.161662e-003
1377777.778	9.989661e-001	1.145947e-002	-1.919656e-006	-2.118456e-005	-1.636617e-005	-3.731673e-005	9.026893e-001	-4.594439e-003
1387487.487	9.989584e-001	1.062881e-002	-1.768995e-005	2.827521e-005	-4.190291e-005	1.460684e-005	9.022073e-001	-3.779703e-003
1397197.197	9.989784e-001	9.627614e-003	6.528037e-006	-1.511094e-005	5.566768e-006	-1.813856e-006	9.039199e-001	-3.797500e-003
1406906.907	9.988209e-001	8.970833e-003	-4.484191e-006	2.800898e-005	-1.152901e-005	-2.062471e-005	9.033966e-001	-4.399344e-003
1416616.617	9.997605e-001	8.916780e-003	-4.404495e-005	-2.022254e-005	3.001714e-005	-3.529090e-005	9.035189e-001	-3.900631e-003
1426326.326	9.980881e-001	7.620220e-003	-2.688892e-005	5.082830e-006	-4.195033e-005	2.868016e-005	9.030827e-001	-4.572604e-003
1436036.036	9.982746e-001	7.293341e-003	1.710510e-005	1.813339e-005	-5.476320e-006	-5.916555e-006	9.031048e-001	-5.104648e-003
1445745.746	9.980929e-001	5.949820e-003	4.774624e-006	-3.980873e-006	4.631228e-005	-2.374190e-005	9.027381e-001	-4.391015e-003
1455455.455	9.985832e-001	4.946443e-003	1.027815e-006	3.355055e-005	-1.226121e-005	2.575558e-005	9.032667e-001	-4.131885e-003
1465165.165	9.987674e-001	5.180248e-003	1.314448e-006	-1.651154e-005	-2.694147e-005	3.694280e-005	9.029289e-001	-3.275415e-003
1474874.875	9.988738e-001	4.195076e-003	9.458136e-006	2.912959e-005	9.620068e-006	-3.742601e-005	9.031120e-001	-4.215749e-003
1484584.585	9.982545e-001	3.284788e-003	8.144857e-006	-2.804835e-005	-2.613819e-005	-2.507962e-006	9.037520e-001	-4.232980e-003
1494294.294	9.975411e-001	3.293051e-003	-2.003347e-005	8.988540e-006	2.730360e-005	-1.699050e-005	9.029929e-001	-4.529585e-003
1504004.004	9.979607e-001	2.681464e-003	-6.667197e-006	-3.868122e-006	1.044602e-005	5.402726e-005	9.027199e-001	-4.817422e-003
1513713.714	9.985805e-001	1.057123e-003	4.867858e-006	-1.359474e-005	-2.815994e-005	-3.833812e-005	9.028526e-001	-4.909747e-003
1523423.423	9.978835e-001	1.046275e-003	3.222771e-006	4.060743e-005	1.111341e-005	3.767054e-005	9.029540e-001	-4.153838e-003
1533133.133	9.992672e-001	1.029779e-004	1.402463e-005	2.990254e-005	3.978568e-005	7.185345e-005	9.029339e-001	-4.427510e-003
1542842.843	9.987751e-001	-1.837999e-004	8.442406e-007	-4.459842e-005	3.211600e-005	9.982364e-006	9.035604e-001	-4.484106e-003
1552552.553	9.982301e-001	-1.097213e-003	2.984752e-005	1.202650e-005	2.474162e-005	5.292867e-005	9.027458e-001	-4.375850e-003
1562262.262	9.987150e-001	-1.432470e-003	-1.014213e-005	9.461948e-006	-2.348838e-005	3.120143e-005	9.030146e-001	-4.268365e-003
1571971.972	9.985253e-001	-2.847086e-003	-1.057309e-005	3.154432e-005	1.674293e-005	3.354745e-005	9.032752e-001	-4.690008e-003
1581681.682	9.986092e-001	-3.028916e-003	3.252466e-005	-5.434480e-005	-1.131045e-005	-1.475976e-005	9.032429e-001	-4.886626e-003
1591391.391	9.986975e-001	-3.713461e-003	-1.495074e-005	1.667353e-005	-4.438487e-005	3.024128e-005	9.035341e-001	-4.559208e-003
1601101.101	9.978894e-001	-4.588599e-003	8.433583e-006	-8.078273e-006	-3.762862e-006	-2.828525e-005	9.032112e-001	-5.296070e-003
1610810.811	9.986888e-001	-5.631092e-003	1.318095e-005	3.583692e-005	-1.301313e-005	-5.915342e-005	9.025829e-001	-4.837331e-003
1620520.521	9.987196e-001	-5.912657e-003	2.795597e-005	-5.730375e-005	-6.961697e-006	3.583524e-006	9.030440e-001	-4.479456e-003
1630230.230	9.980579e-001	-6.032223e-003	1.924989e-005	-2.561287e-005	-3.698073e-005	-1.813763e-005	9.029155e-001	-4.919900e-003
1639939.940	9.979555e-001	-6.885554e-003	7.745649e-006	3.964823e-006	-1.531880e-005	-2.520233e-005	9.030347e-001	-5.312539e-003
1649649.650	9.980235e-001	-8.099525e-003	3.452484e-005	1.382733e-005	8.594618e-006	-2.414686e-005	9.029934e-001	-5.432205e-003
1659359.359	9.983308e-001	-8.344539e-003	-8.396892e-006	6.632334e-005	-2.792229e-005	-8.772124e-006	9.026303e-001	-5.196484e-003
1669069.069	9.986101e-001	-8.715657e-003	-2.478968e-005	-4.653082e-005	4.356829e-005	7.090224e-006	9.028271e-001	-4.524612e-003
1678778.779	9.980305e-001	-9.257538e-003	-1.156712e-005	1.835986e-006	5.367963e-005	1.814029e-005	9.033799e-001	-4.869402e-003
1688488.488	9.982802e-001	-9.453358e-003	-2.193338e-005	7.179949e-006	-2.312740e-005	2.047546e-005	9.028799e-001	-5.290047e-003
1698198.198	9.981949e-001	-9.717335e-003	-3.422207e-005	9.425853e-006	-4.613596e-005	3.298480e-005	9.025034e-001	-4.879705e-003
1707907.908	9.985822e-001	-1.040385e-002	1.524181e-005	-2.647790e-005	-1.173191e-005	-1.872709e-006	9.029057e-001	-5.310281e-003
1717617.618	9.984158e-001	-1.166046e-002	-4.856254e-006	2.699228e-005	5.981802e-006	-1.650958e-005	9.033614e-001	-5.033766e-003
1727327.327	9.990513e-001	-1.273277e-002	4.339409e-005	-4.058680e-005	-1.730059e-006	-5.482447e-006	9.031110e-001	-5.201665e-003
1737037.037	9.984527e-001	-1.302235e-002	-2.086142e-005	-1.798792e-005	-1.047283e-005	1.371101e-005	9.033357e-001	-5.022149e-003
1746746.747	9.973664e-001	-1.324347e-002	-1.598965e-005	-2.710408e-005	-2.299778e-006	-1.046751e-005	9.030770e-001	-5.251875e-003
1756456.456	9.984290e-001	-1.384784e-002	-5.212938e-007	2.277464e-006	4.063392e-005	1.603549e-005	9.023946e-001	-5.609640e-003
1766166.166	9.983205e-001	-1.486834e-002	5.703145e-005	-6.578720e-005	2.760834e-005	1.186423e-005	9.031701e-001	-4.804097e-003
1775875.876	9.982852e-001	-1.564345e-002	2.632028e-005	-1.550591e-005	1.357291e-005	2.894158e-005	9.032295e-001	-4.879000e-003
1785585.586	9.979891e-001	-1.504493e-002	-1.465901e-005	-1.017222e-005	-5.632322e-006	1.417007e-005	9.024328e-001	-4.975302e-003
1795295.295	9.982065e-001	-1.619492e-002	8.447095e-006	-1.450073e-005	-2.216631e-005	-6.402624e-006	9.027968e-001	-5.729373e-003
1805005.005	9.977103e-001	-1.679708e-002	-2.511302e-005	-1.245742e-005	-1.693828e-006	-4.347683e-005	9.023426e-001	-5.667090e-003
