!Keysight Technologies,E5061B,MY49709559,B.05.06
!Date: Fri Apr 08 00:46:48 2022
!Data & Calibration Information:
!Freq	S11:SOLT2(ON)	S21:SOLT2(ON)	S12:SOLT2(ON)	S22:SOLT2(ON)
# Hz S RI R 50
300000.000	-9.882017e-001	1.968671e-002	1.150974e-005	-4.229648e-006	-1.452540e-005	1.616391e-005	1.012022e+000	4.719887e-003
309709.710	-9.891061e-001	1.911480e-002	1.008517e-005	1.502390e-006	8.857997e-006	-4.175154e-005	1.008541e+000	4.525482e-003
319419.419	-9.899516e-001	1.936004e-002	-1.721782e-005	-2.531029e-005	-1.279395e-005	3.527128e-005	1.006500e+000	3.920486e-003
329129.129	-9.899391e-001	1.997446e-002	1.900115e-005	-1.278216e-005	-2.773904e-005	1.986558e-005	1.005768e+000	3.931918e-003
338838.839	-9.899138e-001	2.016362e-002	2.317227e-005	3.905727e-005	-3.908973e-006	-9.671484e-006	1.005066e+000	3.705328e-003
348548.549	-9.899696e-001	1.975588e-002	-7.198188e-005	3.045068e-005	-3.859426e-006	-5.405095e-005	1.004300e+000	3.852512e-003
358258.258	-9.902114e-001	2.023803e-002	-1.185510e-005	-2.071894e-006	-3.098917e-005	-7.284509e-006	1.004365e+000	3.188904e-003
367967.968	-9.912105e-001	2.045351e-002	1.275350e-005	-2.263403e-006	1.113603e-005	3.589357e-005	1.004362e+000	3.893601e-003
377677.678	-9.897757e-001	2.071751e-002	-1.063446e-005	-3.838201e-005	-3.725380e-005	1.113165e-005	1.003576e+000	3.840702e-003
387387.387	-9.896474e-001	2.091923e-002	-1.762519e-005	-5.521387e-006	-5.024885e-005	-7.441579e-006	1.003625e+000	3.358251e-003
397097.097	-9.904531e-001	2.129729e-002	-3.645142e-005	-6.470650e-006	1.479440e-005	5.501854e-005	1.003709e+000	3.860347e-003
406806.807	-9.895091e-001	2.121910e-002	2.375805e-005	5.024737e-006	1.297293e-005	5.256497e-006	1.003120e+000	4.073699e-003
416516.517	-9.894739e-001	2.087782e-002	-2.856859e-005	-3.568643e-005	-2.860970e-005	-1.427367e-005	1.003708e+000	3.177124e-003
426226.226	-9.903724e-001	2.236711e-002	-3.229558e-005	1.809605e-005	9.236497e-006	3.066086e-005	1.003376e+000	3.345726e-003
435935.936	-9.899229e-001	2.159177e-002	6.705097e-006	-2.536914e-005	2.102900e-005	-7.407051e-005	1.003497e+000	3.730101e-003
445645.646	-9.893194e-001	2.185444e-002	5.314224e-005	-6.117881e-006	1.434527e-007	2.750563e-007	1.002886e+000	3.776183e-003
455355.355	-9.896856e-001	2.239906e-002	5.963633e-006	3.300219e-005	-2.748320e-005	-5.125402e-005	1.003091e+000	2.792516e-003
465065.065	-9.889838e-001	2.218730e-002	4.877751e-006	-5.325949e-005	-3.953495e-005	-4.353767e-005	1.002721e+000	3.287091e-003
474774.775	-9.895278e-001	2.287703e-002	4.698928e-005	3.580671e-006	4.337726e-005	-1.912819e-006	1.002511e+000	2.952450e-003
484484.484	-9.888721e-001	2.277699e-002	-6.016602e-005	2.235713e-005	4.502173e-005	-5.630990e-006	1.002904e+000	3.353681e-003
494194.194	-9.893365e-001	2.287369e-002	-4.105735e-006	4.218555e-005	5.154893e-006	-2.628642e-005	1.002579e+000	3.141611e-003
503903.904	-9.892684e-001	2.286845e-002	-5.418516e-005	6.680025e-005	-3.171573e-006	5.207904e-006	1.002773e+000	3.373001e-003
513613.614	-9.887536e-001	2.314183e-002	1.297323e-005	2.570328e-005	-2.479016e-005	2.284711e-005	1.002639e+000	3.750122e-003
523323.323	-9.898768e-001	2.327942e-002	2.193204e-006	2.752601e-005	3.743719e-005	2.083962e-005	1.002086e+000	3.189065e-003
533033.033	-9.893056e-001	2.383307e-002	1.388809e-006	5.652129e-006	2.569709e-006	3.978949e-005	1.002317e+000	2.988453e-003
542742.743	-9.893628e-001	2.434410e-002	-6.743053e-005	6.029653e-006	-3.302632e-005	3.778801e-007	1.003012e+000	2.824680e-003
552452.452	-9.890536e-001	2.410610e-002	-9.083992e-006	3.531226e-005	6.083854e-005	5.524247e-006	1.002521e+000	3.310336e-003
562162.162	-9.883689e-001	2.389657e-002	-4.056315e-005	-2.164126e-005	-3.774461e-005	-3.245168e-005	1.001920e+000	2.767397e-003
571871.872	-9.887111e-001	2.430152e-002	1.789998e-005	1.135233e-005	3.238812e-005	3.457944e-005	1.002248e+000	3.370775e-003
581581.582	-9.888549e-001	2.508335e-002	-3.333104e-005	-5.207244e-005	6.599515e-006	-1.617557e-005	1.002639e+000	3.211811e-003
591291.291	-9.883158e-001	2.478111e-002	2.139290e-005	-8.122748e-006	1.830473e-005	4.655429e-005	1.001995e+000	3.597005e-003
601001.001	-9.885431e-001	2.513684e-002	-2.267110e-005	-2.086740e-005	2.358850e-005	1.563199e-005	1.001300e+000	3.320944e-003
610710.711	-9.880368e-001	2.541614e-002	5.006144e-006	-9.060092e-007	1.823057e-005	2.421749e-005	1.001323e+000	3.754465e-003
620420.420	-9.885137e-001	2.574562e-002	3.663849e-005	-3.681085e-005	-2.492065e-006	-2.564810e-005	1.002572e+000	3.087254e-003
630130.130	-9.880949e-001	2.608369e-002	5.220109e-005	7.495637e-006	3.218718e-006	-1.478699e-005	1.002689e+000	3.809349e-003
639839.840	-9.880286e-001	2.649164e-002	3.590315e-005	-2.279202e-005	-1.391268e-005	3.726453e-005	1.002854e+000	3.202284e-003
649549.550	-9.879808e-001	2.629230e-002	1.639759e-005	-3.690846e-007	-4.365302e-005	4.046667e-005	1.002405e+000	3.426010e-003
659259.259	-9.878389e-001	2.640070e-002	-2.485298e-005	-2.591657e-005	-1.945456e-005	-1.937533e-005	1.002108e+000	3.128440e-003
668968.969	-9.876361e-001	2.683205e-002	3.151554e-005	5.059546e-005	-2.643789e-005	-1.300130e-006	1.002590e+000	3.500244e-003
678678.679	-9.875637e-001	2.707106e-002	-4.154765e-006	-2.231253e-005	1.342599e-005	1.451697e-005	1.002142e+000	2.964365e-003
688388.388	-9.873660e-001	2.733880e-002	2.296056e-005	3.045290e-005	3.432683e-005	-9.946417e-006	1.002410e+000	3.089954e-003
698098.098	-9.871318e-001	2.719714e-002	4.575201e-005	-4.734866e-006	1.669567e-005	-7.176971e-006	1.001873e+000	3.664900e-003
707807.808	-9.867217e-001	2.781636e-002	2.577601e-006	-2.844356e-005	2.242772e-006	-5.276940e-005	1.002317e+000	3.577359e-003
717517.518	-9.870040e-001	2.726719e-002	-1.772267e-005	2.442737e-005	2.504424e-006	5.548364e-006	1.002095e+000	3.201173e-003
727227.227	-9.873893e-001	2.719022e-002	3.379685e-005	-2.183787e-005	1.985021e-006	-2.438963e-005	1.002483e+000	3.417558e-003
736936.937	-9.865115e-001	2.794016e-002	-4.595549e-005	-6.701429e-006	1.760653e-005	2.024010e-005	1.002274e+000	3.635743e-003
746646.647	-9.852659e-001	2.828161e-002	1.214378e-005	-1.738840e-005	-3.566122e-005	3.936943e-006	1.002705e+000	3.317474e-003
756356.356	-9.865505e-001	2.853493e-002	-1.328468e-005	-1.619905e-005	3.112025e-005	3.576291e-005	1.002716e+000	3.306158e-003
766066.066	-9.857335e-001	2.840023e-002	-1.373090e-005	3.062085e-005	8.368218e-006	-2.555723e-005	1.002754e+000	3.798141e-003
775775.776	-9.857021e-001	2.870759e-002	4.912995e-006	-1.157252e-005	3.966725e-005	2.397647e-005	1.002397e+000	3.559844e-003
785485.485	-9.863917e-001	2.814878e-002	3.923998e-005	-2.458809e-005	1.149716e-005	3.621042e-006	1.002024e+000	3.476599e-003
795195.195	-9.857472e-001	2.867515e-002	-2.335016e-005	1.671357e-005	-1.564984e-005	4.457191e-006	1.002885e+000	2.926555e-003
804904.905	-9.861982e-001	2.949629e-002	2.688684e-005	-7.689188e-006	2.089194e-005	-7.112893e-006	1.002619e+000	3.234443e-003
814614.615	-9.855549e-001	2.945369e-002	-1.701696e-005	-4.150510e-005	1.639019e-005	8.816354e-006	1.002471e+000	3.327397e-003
824324.324	-9.861207e-001	2.975564e-002	-1.705887e-005	8.671475e-006	-6.523707e-007	3.829153e-006	1.002413e+000	3.657544e-003
834034.034	-9.856109e-001	3.009343e-002	3.491264e-005	-5.997519e-005	-1.688953e-005	-2.700561e-005	1.002484e+000	3.069003e-003
843743.744	-9.861402e-001	2.975403e-002	1.522550e-005	2.255307e-005	-6.725489e-006	1.650014e-006	1.001999e+000	3.608228e-003
853453.453	-9.864078e-001	2.971175e-002	1.008942e-005	-1.552058e-005	1.033272e-005	1.438998e-005	1.002311e+000	3.493526e-003
863163.163	-9.856849e-001	2.985242e-002	8.400735e-006	1.845967e-005	-2.574394e-005	-3.627423e-005	1.003637e+000	2.616706e-003
872872.873	-9.853445e-001	3.121600e-002	1.032724e-005	4.577273e-006	-3.812804e-005	2.052951e-005	1.002887e+000	3.091513e-003
882582.583	-9.853757e-001	3.103541e-002	1.897635e-005	1.253779e-005	-2.217449e-007	-2.903551e-005	1.002392e+000	3.432391e-003
892292.292	-9.859550e-001	3.147422e-002	4.997255e-005	2.843701e-005	-1.434698e-005	6.398607e-005	1.003157e+000	2.979018e-003
902002.002	-9.853337e-001	3.178509e-002	1.963735e-005	-1.205543e-005	-5.736964e-006	-2.705346e-005	1.003159e+000	3.158035e-003
911711.712	-9.848173e-001	3.103116e-002	-2.408072e-005	3.077976e-006	-3.495193e-005	-1.627557e-005	1.003051e+000	3.096851e-003
921421.421	-9.844704e-001	3.108410e-002	1.823492e-005	-4.851687e-005	6.351298e-006	1.360961e-005	1.002398e+000	2.648954e-003
931131.131	-9.846273e-001	3.142185e-002	1.843009e-006	2.051148e-005	-3.559924e-005	1.665720e-005	1.002467e+000	3.336695e-003
940840.841	-9.847033e-001	3.184466e-002	-1.280997e-005	-8.141946e-006	-2.448563e-005	4.690443e-006	1.003208e+000	2.705373e-003
950550.551	-9.842652e-001	3.196406e-002	2.840752e-005	-1.250517e-005	-2.357502e-005	1.208799e-005	1.002800e+000	3.228996e-003
960260.260	-9.843907e-001	3.221769e-002	-3.860237e-005	8.303266e-006	-7.616030e-006	-2.554233e-005	1.002848e+000	2.897418e-003
969969.970	-9.843579e-001	3.306524e-002	-1.195889e-005	1.663666e-005	-1.221963e-005	-2.975202e-005	1.002706e+000	2.800697e-003
979679.680	-9.850094e-001	3.257455e-002	-1.105536e-005	-2.096983e-006	5.652013e-006	1.613344e-005	1.002494e+000	2.870720e-003
989389.389	-9.844568e-001	3.288720e-002	-6.154736e-005	1.506637e-005	-3.159316e-005	7.728518e-006	1.002981e+000	2.927443e-003
999099.099	-9.841454e-001	3.341525e-002	6.188630e-006	-9.810451e-006	-5.789928e-006	8.893227e-005	1.003125e+000	2.601863e-003
1008808.809	-9.840505e-001	3.370709e-002	4.136904e-005	5.280738e-006	4.040672e-005	-3.603370e-005	1.002955e+000	2.952035e-003
1018518.519	-9.835545e-001	3.362615e-002	6.120604e-006	3.039051e-006	-3.282991e-005	1.270880e-005	1.002631e+000	2.818849e-003
1028228.228	-9.843437e-001	3.363316e-002	4.714216e-005	-6.730003e-006	5.672047e-006	-2.723591e-005	1.002653e+000	3.465301e-003
1037937.938	-9.837810e-001	3.409791e-002	1.662171e-005	-4.693893e-005	2.678730e-005	-3.251298e-005	1.002378e+000	2.887266e-003
1047647.648	-9.841205e-001	3.473325e-002	2.535311e-005	-8.456334e-006	-1.977478e-005	-1.049101e-005	1.003211e+000	3.115699e-003
1057357.357	-9.842220e-001	3.506310e-002	1.625018e-005	1.713603e-005	-5.144809e-005	4.018014e-006	1.002991e+000	2.820786e-003
1067067.067	-9.840858e-001	3.517324e-002	3.033627e-006	3.529194e-005	5.010062e-005	6.112200e-006	1.003151e+000	2.682414e-003
1076776.777	-9.843136e-001	3.568523e-002	2.062158e-005	1.177765e-005	-2.329630e-005	-3.036669e-005	1.002682e+000	3.198485e-003
1086486.486	-9.839597e-001	3.623371e-002	-5.097631e-005	-9.779752e-006	-3.397295e-005	-1.429606e-005	1.002898e+000	2.918380e-003
1096196.196	-9.840431e-001	3.596599e-002	2.333237e-005	2.128815e-005	-3.100414e-005	2.274088e-005	1.003042e+000	3.327458e-003
1105905.906	-9.838300e-001	3.635984e-002	3.875292e-005	-2.588036e-005	5.132911e-006	2.009945e-005	1.002884e+000	2.305675e-003
1115615.616	-9.834627e-001	3.677916e-002	-3.952349e-005	1.842159e-005	3.042848e-005	-1.489558e-006	1.002847e+000	2.960038e-003
1125325.325	-9.831488e-001	3.693742e-002	-1.087660e-005	2.064701e-005	1.728637e-006	2.820655e-005	1.003064e+000	3.200617e-003
1135035.035	-9.829567e-001	3.747059e-002	-7.119760e-007	-2.738459e-005	7.248120e-006	6.047908e-006	1.003359e+000	2.884566e-003
1144744.745	-9.829347e-001	3.656488e-002	-3.359115e-005	-1.269923e-005	-4.209896e-005	2.575440e-005	1.003125e+000	3.057160e-003
1154454.454	-9.828147e-001	3.684425e-002	-2.763144e-005	-2.560007e-005	-1.189271e-005	-1.164689e-005	1.003840e+000	2.955085e-003
1164164.164	-9.822775e-001	3.671008e-002	-2.084354e-005	3.269712e-006	3.523280e-005	-8.411165e-006	1.003327e+000	2.726358e-003
1173873.874	-9.826805e-001	3.739571e-002	1.330017e-005	6.430818e-006	3.529669e-005	-2.226163e-005	1.003355e+000	2.662871e-003
1183583.584	-9.825891e-001	3.680032e-002	-9.435328e-006	-6.476833e-006	3.371207e-005	2.619475e-005	1.002875e+000	2.755419e-003
1193293.293	-9.826846e-001	3.765660e-002	-3.440140e-005	7.182667e-008	9.744639e-006	1.996184e-006	1.003293e+000	2.677463e-003
1203003.003	-9.827723e-001	3.768052e-002	-2.623891e-005	1.049580e-005	1.532690e-005	-3.725707e-005	1.002929e+000	3.016639e-003
1212712.713	-9.825262e-001	3.787273e-002	5.284083e-005	3.140954e-005	-2.395216e-005	5.203366e-005	1.002764e+000	2.430150e-003
1222422.422	-9.823544e-001	3.829770e-002	-5.856573e-005	1.015959e-005	-9.709589e-006	-9.974012e-008	1.003187e+000	2.948319e-003
1232132.132	-9.817886e-001	3.839814e-002	2.961419e-005	-1.813647e-005	6.516757e-006	-7.160778e-006	1.002677e+000	2.689406e-003
1241841.842	-9.817912e-001	3.828425e-002	-2.339032e-005	-4.948282e-006	-4.392267e-005	-2.228206e-005	1.003006e+000	2.707297e-003
1251551.552	-9.820196e-001	3.994514e-002	-2.863390e-006	-2.932342e-007	-3.292950e-005	2.298608e-006	1.003151e+000	2.340573e-003
1261261.261	-9.815324e-001	3.979045e-002	1.212192e-005	-8.475337e-006	2.675735e-005	-3.167161e-005	1.003088e+000	2.459496e-003
1270970.971	-9.824392e-001	3.996812e-002	-3.793932e-005	1.867105e-005	4.189570e-007	5.708442e-005	1.002742e+000	3.004132e-003
1280680.681	-9.815310e-001	4.039395e-002	2.783449e-005	3.043240e-006	1.169091e-007	6.340756e-005	1.002556e+000	2.117068e-003
1290390.390	-9.814567e-001	4.013068e-002	-1.000601e-005	-4.429437e-005	-2.672507e-005	2.318662e-005	1.003199e+000	2.597974e-003
1300100.100	-9.819493e-001	4.026060e-002	-9.175399e-006	2.419869e-005	1.041012e-005	-2.792673e-005	1.003069e+000	3.111807e-003
1309809.810	-9.822020e-001	4.030079e-002	5.626345e-005	-1.998112e-006	-1.870618e-005	7.948485e-006	1.003128e+000	2.137486e-003
1319519.520	-9.816975e-001	4.075843e-002	-6.983739e-006	2.715766e-005	-7.655144e-006	-5.101736e-006	1.002601e+000	2.410101e-003
1329229.229	-9.818816e-001	4.123128e-002	2.417507e-005	-3.072221e-005	-7.210818e-006	8.137550e-006	1.003372e+000	2.613677e-003
1338938.939	-9.815904e-001	4.077742e-002	-3.181454e-005	-1.012930e-005	1.676577e-005	3.683416e-005	1.002628e+000	2.288247e-003
1348648.649	-9.812336e-001	4.114276e-002	2.486853e-005	6.320345e-007	3.881791e-005	1.109448e-005	1.003203e+000	2.206556e-003
1358358.358	-9.815573e-001	4.229710e-002	7.950299e-007	-1.446728e-006	-5.115262e-005	-2.653236e-005	1.003107e+000	2.896048e-003
1368068.068	-9.813583e-001	4.181480e-002	-3.925056e-005	-2.990789e-005	3.192174e-005	4.968415e-005	1.003250e+000	2.791258e-003
1377777.778	-9.810647e-001	4.159849e-002	-3.934535e-005	1.374058e-005	1.536591e-005	-2.655290e-005	1.003698e+000	2.477761e-003
1387487.487	-9.809035e-001	4.143371e-002	-1.108466e-005	5.476333e-006	-5.242558e-005	2.037258e-005	1.002467e+000	2.567940e-003
1397197.197	-9.815638e-001	4.246280e-002	-2.564161e-005	2.203362e-005	5.247082e-005	7.138470e-006	1.002700e+000	2.672499e-003
1406906.907	-9.808997e-001	4.216771e-002	1.323051e-005	-5.556712e-006	-9.349520e-006	-1.874152e-005	1.002860e+000	2.489929e-003
1416616.617	-9.809923e-001	4.278528e-002	-2.692344e-005	1.043579e-005	-9.345626e-006	-1.979866e-005	1.002466e+000	2.311026e-003
1426326.326	-9.815687e-001	4.310822e-002	1.765157e-006	-4.853642e-005	2.640556e-005	-4.104263e-005	1.002945e+000	2.748750e-003
1436036.036	-9.811378e-001	4.326274e-002	4.972977e-005	-1.492967e-005	-5.602251e-005	-7.671013e-006	1.002848e+000	2.366028e-003
1445745.746	-9.813829e-001	4.336708e-002	-1.739354e-005	-2.615800e-005	3.993317e-005	-1.683589e-005	1.002904e+000	2.505218e-003
1455455.455	-9.810917e-001	4.383908e-002	-8.093473e-007	-3.533544e-005	4.712735e-005	7.117964e-006	1.002754e+000	2.435049e-003
1465165.165	-9.804970e-001	4.424454e-002	-1.541273e-006	-1.222986e-005	9.201466e-006	5.138129e-005	1.003014e+000	2.933999e-003
1474874.875	-9.813211e-001	4.448577e-002	-2.932755e-005	-3.251546e-006	2.124495e-006	4.184746e-005	1.002677e+000	2.602976e-003
1484584.585	-9.808356e-001	4.468259e-002	4.606487e-006	1.439225e-005	-4.897685e-005	-2.118887e-005	1.002908e+000	3.042282e-003
1494294.294	-9.805821e-001	4.485749e-002	-3.962904e-007	-2.523233e-005	-6.866953e-006	-5.836110e-006	1.002813e+000	2.455814e-003
1504004.004	-9.807756e-001	4.479900e-002	-1.665046e-005	-3.247837e-005	3.267755e-005	2.775952e-005	1.003279e+000	2.985918e-003
1513713.714	-9.814578e-001	4.555301e-002	-1.650684e-005	-6.474766e-006	8.657402e-006	4.499533e-005	1.003173e+000	2.688113e-003
1523423.423	-9.807960e-001	4.532883e-002	9.209730e-006	-4.025328e-005	-2.023985e-005	2.568372e-005	1.003291e+000	2.487853e-003
1533133.133	-9.802457e-001	4.582868e-002	-9.586798e-006	1.606670e-005	1.298383e-005	-2.800991e-005	1.003276e+000	3.145744e-003
1542842.843	-9.803787e-001	4.673280e-002	-1.453864e-005	-4.557529e-005	1.867052e-005	2.314338e-005	1.003445e+000	2.591378e-003
1552552.553	-9.807058e-001	4.640426e-002	-1.322700e-005	-9.063972e-007	-1.390436e-005	-9.285901e-006	1.002762e+000	2.579310e-003
1562262.262	-9.805347e-001	4.662380e-002	-6.295737e-006	-1.690013e-005	-1.962571e-005	4.631969e-005	1.002871e+000	2.730296e-003
1571971.972	-9.804774e-001	4.651267e-002	-1.767329e-005	-1.770295e-005	3.266802e-005	-2.711826e-005	1.002623e+000	2.239268e-003
1581681.682	-9.802989e-001	4.674247e-002	9.874576e-007	1.983926e-006	-4.112103e-005	1.954249e-005	1.002837e+000	1.796603e-003
1591391.391	-9.805670e-001	4.705341e-002	1.125149e-006	2.123826e-005	1.700590e-005	2.707349e-005	1.003095e+000	2.373362e-003
1601101.101	-9.800847e-001	4.763072e-002	-3.022324e-005	-8.958864e-006	4.892321e-006	-8.202652e-006	1.002913e+000	2.806798e-003
1610810.811	-9.797723e-001	4.704024e-002	-1.331863e-005	-2.868732e-005	-2.081141e-005	-2.813431e-006	1.002900e+000	2.339647e-003
1620520.521	-9.804307e-001	4.806791e-002	3.141348e-005	-2.088321e-005	-1.447038e-005	7.393004e-006	1.003251e+000	2.074071e-003
1630230.230	-9.796742e-001	4.830230e-002	-1.494671e-005	1.096973e-005	-2.581729e-005	2.652444e-005	1.003025e+000	2.769820e-003
1639939.940	-9.797124e-001	4.891474e-002	-6.155253e-006	6.104539e-006	-8.363454e-006	-1.284090e-007	1.003062e+000	3.027780e-003
1649649.650	-9.803498e-001	4.897279e-002	-1.785476e-005	5.651950e-005	-1.990478e-006	1.764774e-005	1.003560e+000	2.601184e-003
1659359.359	-9.796761e-001	4.941721e-002	-2.757561e-005	-2.095729e-005	-2.171498e-005	-3.801154e-005	1.003015e+000	2.132099e-003
1669069.069	-9.795054e-001	4.988786e-002	4.593924e-006	-4.734646e-005	2.115565e-005	-8.299963e-006	1.003041e+000	2.127400e-003
1678778.779	-9.796511e-001	4.882525e-002	-2.152266e-005	-9.095146e-006	-5.088795e-005	3.236592e-005	1.002628e+000	1.717789e-003
1688488.488	-9.792520e-001	5.004332e-002	2.307566e-005	4.690967e-005	-2.683671e-005	2.216896e-006	1.002794e+000	2.063769e-003
1698198.198	-9.792686e-001	5.004778e-002	5.679281e-006	1.722267e-005	-1.875813e-006	2.655747e-005	1.002217e+000	2.854872e-003
1707907.908	-9.791684e-001	5.138919e-002	2.197998e-005	-7.630692e-006	-9.531673e-006	-1.373984e-005	1.003412e+000	2.412980e-003
1717617.618	-9.790460e-001	5.109531e-002	-2.371286e-005	-7.454394e-006	4.525289e-005	-4.866001e-005	1.003361e+000	2.548675e-003
1727327.327	-9.783600e-001	5.101161e-002	1.973713e-005	2.072927e-005	-3.657458e-005	-2.888460e-005	1.002957e+000	2.301550e-003
1737037.037	-9.793480e-001	5.079849e-002	-3.259888e-005	-3.844812e-005	8.910156e-006	-2.084979e-005	1.003034e+000	2.287365e-003
1746746.747	-9.792503e-001	5.048616e-002	-2.186901e-005	1.471228e-006	1.900816e-006	1.291097e-005	1.003191e+000	2.666865e-003
1756456.456	-9.793229e-001	5.161342e-002	-2.523113e-005	4.964146e-005	-4.293126e-006	-2.482756e-007	1.003547e+000	2.283686e-003
1766166.166	-9.788437e-001	5.127428e-002	2.479788e-005	-1.037583e-005	-1.434524e-005	-5.276033e-006	1.003255e+000	1.960377e-003
1775875.876	-9.783410e-001	5.184910e-002	-2.659979e-005	2.977929e-005	2.689198e-005	-2.296132e-005	1.003146e+000	2.631822e-003
1785585.586	-9.784940e-001	5.208622e-002	-1.910182e-005	4.508952e-006	4.255056e-005	-2.242939e-006	1.003367e+000	1.558947e-003
1795295.295	-9.786084e-001	5.165921e-002	-7.956043e-007	2.024877e-005	-9.261084e-006	1.701612e-005	1.003009e+000	2.970298e-003
1805005.005	-9.786597e-001	5.225860e-002	1.859926e-005	-2.312625e-005	-3.140312e-006	-1.802689e-005	1.003740e+000	2.564614e-003
