!Keysight Technologies,E5061B,MY49709559,B.05.06
!Date: Fri Apr 08 00:57:31 2022
!Data & Calibration Information:
!Freq	S11:SOLT2(ON)	S21:SOLT2(ON)	S12:SOLT2(ON)	S22:SOLT2(ON)
# Hz S RI R 50
300000.000	7.563152e-001	2.041887e-001	4.340671e-001	4.917808e-002	4.330414e-001	4.954389e-002	-8.838789e-001	1.996141e-002
309709.710	7.581260e-001	1.977372e-001	4.348930e-001	4.753452e-002	4.335693e-001	4.804309e-002	-8.841440e-001	1.963065e-002
319419.419	7.586483e-001	1.909814e-001	4.346309e-001	4.594141e-002	4.341246e-001	4.582274e-002	-8.845008e-001	1.858737e-002
329129.129	7.599871e-001	1.845198e-001	4.351427e-001	4.391482e-002	4.352374e-001	4.400037e-002	-8.842087e-001	2.061500e-002
338838.839	7.618261e-001	1.796318e-001	4.356737e-001	4.242699e-002	4.354438e-001	4.272587e-002	-8.840077e-001	1.921405e-002
348548.549	7.624195e-001	1.743715e-001	4.355301e-001	4.125172e-002	4.360730e-001	4.136794e-002	-8.845715e-001	1.938872e-002
358258.258	7.633510e-001	1.688229e-001	4.360194e-001	3.969382e-002	4.357418e-001	4.006655e-002	-8.836221e-001	1.856608e-002
367967.968	7.646090e-001	1.647065e-001	4.368144e-001	3.881129e-002	4.368891e-001	3.874940e-002	-8.847633e-001	1.905535e-002
377677.678	7.658451e-001	1.593381e-001	4.368532e-001	3.715716e-002	4.369235e-001	3.745549e-002	-8.847074e-001	1.878413e-002
387387.387	7.666470e-001	1.551249e-001	4.374607e-001	3.623084e-002	4.375223e-001	3.719898e-002	-8.847981e-001	1.855077e-002
397097.097	7.664235e-001	1.508674e-001	4.368760e-001	3.519716e-002	4.373674e-001	3.512257e-002	-8.835879e-001	1.863989e-002
406806.807	7.678031e-001	1.469306e-001	4.369671e-001	3.475771e-002	4.379572e-001	3.442756e-002	-8.836019e-001	1.827796e-002
416516.517	7.681063e-001	1.427150e-001	4.374022e-001	3.279987e-002	4.374672e-001	3.324701e-002	-8.831312e-001	1.931592e-002
426226.226	7.691341e-001	1.393162e-001	4.376106e-001	3.239566e-002	4.380469e-001	3.236283e-002	-8.836239e-001	1.842606e-002
435935.936	7.691199e-001	1.356582e-001	4.373826e-001	3.158653e-002	4.378517e-001	3.093549e-002	-8.830327e-001	1.895105e-002
445645.646	7.693456e-001	1.324145e-001	4.376196e-001	3.088481e-002	4.386647e-001	3.075587e-002	-8.836863e-001	1.804842e-002
455355.355	7.703454e-001	1.294254e-001	4.377584e-001	2.950628e-002	4.388695e-001	2.976475e-002	-8.827660e-001	1.818118e-002
465065.065	7.708069e-001	1.262604e-001	4.380963e-001	2.898951e-002	4.392276e-001	2.876362e-002	-8.835529e-001	1.870047e-002
474774.775	7.710821e-001	1.233315e-001	4.381531e-001	2.833168e-002	4.391667e-001	2.796394e-002	-8.844986e-001	1.875138e-002
484484.484	7.714718e-001	1.200717e-001	4.381385e-001	2.737466e-002	4.386395e-001	2.734677e-002	-8.841391e-001	1.822190e-002
494194.194	7.720703e-001	1.169610e-001	4.384223e-001	2.657058e-002	4.393288e-001	2.657064e-002	-8.841572e-001	1.814023e-002
503903.904	7.725474e-001	1.140715e-001	4.383970e-001	2.544576e-002	4.392232e-001	2.560044e-002	-8.842821e-001	1.767117e-002
513613.614	7.729426e-001	1.115930e-001	4.386795e-001	2.468814e-002	4.397411e-001	2.470413e-002	-8.841494e-001	1.891242e-002
523323.323	7.733886e-001	1.088472e-001	4.388652e-001	2.436172e-002	4.392708e-001	2.421991e-002	-8.833503e-001	1.848467e-002
533033.033	7.739642e-001	1.067654e-001	4.388483e-001	2.386480e-002	4.394385e-001	2.324822e-002	-8.831967e-001	1.881496e-002
542742.743	7.735866e-001	1.043626e-001	4.391985e-001	2.313013e-002	4.399950e-001	2.295822e-002	-8.836879e-001	1.842130e-002
552452.452	7.741675e-001	1.021568e-001	4.388277e-001	2.221515e-002	4.404341e-001	2.245085e-002	-8.842985e-001	1.811927e-002
562162.162	7.744905e-001	1.000822e-001	4.392737e-001	2.213770e-002	4.399770e-001	2.180610e-002	-8.835564e-001	1.829344e-002
571871.872	7.744492e-001	9.831187e-002	4.390819e-001	2.160405e-002	4.396385e-001	2.116387e-002	-8.831512e-001	1.845167e-002
581581.582	7.753948e-001	9.584527e-002	4.394888e-001	2.078475e-002	4.400597e-001	2.064485e-002	-8.836680e-001	1.765951e-002
591291.291	7.750333e-001	9.336340e-002	4.394594e-001	1.973542e-002	4.397405e-001	2.005430e-002	-8.832517e-001	1.836175e-002
601001.001	7.754661e-001	9.150783e-002	4.394917e-001	1.926273e-002	4.400143e-001	1.919085e-002	-8.834794e-001	1.978973e-002
610710.711	7.750775e-001	8.962338e-002	4.393176e-001	1.870537e-002	4.401304e-001	1.906083e-002	-8.832175e-001	1.909039e-002
620420.420	7.759569e-001	8.784338e-002	4.397634e-001	1.789220e-002	4.405051e-001	1.885405e-002	-8.831700e-001	1.877491e-002
630130.130	7.755858e-001	8.571489e-002	4.395244e-001	1.753505e-002	4.402491e-001	1.764443e-002	-8.832334e-001	1.991447e-002
639839.840	7.762804e-001	8.418521e-002	4.397318e-001	1.711865e-002	4.402905e-001	1.717990e-002	-8.835351e-001	2.019330e-002
649549.550	7.763073e-001	8.251085e-002	4.398128e-001	1.684342e-002	4.402259e-001	1.652581e-002	-8.830744e-001	2.007912e-002
659259.259	7.769591e-001	8.101333e-002	4.397475e-001	1.649629e-002	4.400658e-001	1.622325e-002	-8.828204e-001	1.949901e-002
668968.969	7.763516e-001	7.893835e-002	4.397512e-001	1.577087e-002	4.401607e-001	1.560361e-002	-8.829569e-001	1.963286e-002
678678.679	7.768571e-001	7.753795e-002	4.400525e-001	1.539142e-002	4.401998e-001	1.502380e-002	-8.833640e-001	2.028112e-002
688388.388	7.764931e-001	7.533048e-002	4.397058e-001	1.459902e-002	4.407637e-001	1.493663e-002	-8.837065e-001	1.969500e-002
698098.098	7.769004e-001	7.435525e-002	4.400478e-001	1.450809e-002	4.402261e-001	1.464809e-002	-8.829125e-001	1.938512e-002
707807.808	7.764634e-001	7.260575e-002	4.393534e-001	1.395136e-002	4.400087e-001	1.374109e-002	-8.819491e-001	2.073691e-002
717517.518	7.764212e-001	7.139658e-002	4.397921e-001	1.382329e-002	4.401509e-001	1.335505e-002	-8.830202e-001	2.034430e-002
727227.227	7.771992e-001	6.958648e-002	4.400158e-001	1.314956e-002	4.405493e-001	1.282861e-002	-8.830336e-001	1.986584e-002
736936.937	7.771571e-001	6.856049e-002	4.399093e-001	1.310492e-002	4.406264e-001	1.251772e-002	-8.831571e-001	2.085171e-002
746646.647	7.776407e-001	6.743729e-002	4.398919e-001	1.310275e-002	4.406236e-001	1.263103e-002	-8.834343e-001	1.927666e-002
756356.356	7.776534e-001	6.594876e-002	4.399642e-001	1.230462e-002	4.408918e-001	1.203761e-002	-8.828582e-001	1.917382e-002
766066.066	7.772656e-001	6.461047e-002	4.400071e-001	1.148616e-002	4.406643e-001	1.123870e-002	-8.823924e-001	1.987637e-002
775775.776	7.777632e-001	6.348913e-002	4.398851e-001	1.135789e-002	4.405672e-001	1.087864e-002	-8.826292e-001	2.009326e-002
785485.485	7.777506e-001	6.184427e-002	4.398891e-001	1.105326e-002	4.404674e-001	1.106328e-002	-8.820718e-001	2.017740e-002
795195.195	7.782070e-001	6.011136e-002	4.402256e-001	1.058182e-002	4.404435e-001	1.038308e-002	-8.825472e-001	2.006801e-002
804904.905	7.776370e-001	5.933162e-002	4.399629e-001	1.056425e-002	4.405030e-001	9.864045e-003	-8.819809e-001	2.108659e-002
814614.615	7.780925e-001	5.745507e-002	4.401619e-001	9.197097e-003	4.405860e-001	9.533715e-003	-8.824646e-001	2.075542e-002
824324.324	7.781270e-001	5.742363e-002	4.400538e-001	9.238538e-003	4.405234e-001	9.030076e-003	-8.829872e-001	2.033017e-002
834034.034	7.782349e-001	5.622532e-002	4.400378e-001	9.215203e-003	4.404980e-001	8.819266e-003	-8.820998e-001	2.088112e-002
843743.744	7.785508e-001	5.500499e-002	4.404355e-001	8.634179e-003	4.404700e-001	8.454934e-003	-8.821972e-001	2.032075e-002
853453.453	7.785372e-001	5.334320e-002	4.401810e-001	8.122405e-003	4.407590e-001	8.068353e-003	-8.827409e-001	2.099917e-002
863163.163	7.783509e-001	5.233538e-002	4.404611e-001	8.132454e-003	4.407268e-001	7.612557e-003	-8.820729e-001	2.080107e-002
872872.873	7.783263e-001	5.110933e-002	4.397825e-001	7.414813e-003	4.405631e-001	7.281317e-003	-8.816835e-001	2.183956e-002
882582.583	7.781500e-001	5.032263e-002	4.398813e-001	7.326166e-003	4.406481e-001	7.605732e-003	-8.821543e-001	2.129505e-002
892292.292	7.783809e-001	5.005540e-002	4.401156e-001	7.397707e-003	4.405205e-001	6.588131e-003	-8.818261e-001	2.184103e-002
902002.002	7.782856e-001	4.852742e-002	4.404170e-001	6.531574e-003	4.399384e-001	6.084894e-003	-8.814798e-001	2.267075e-002
911711.712	7.786912e-001	4.751343e-002	4.404466e-001	6.553042e-003	4.406165e-001	6.237722e-003	-8.816686e-001	2.203897e-002
921421.421	7.784916e-001	4.680859e-002	4.402793e-001	6.175540e-003	4.409123e-001	5.641222e-003	-8.816360e-001	2.248272e-002
931131.131	7.781481e-001	4.595849e-002	4.400508e-001	6.233553e-003	4.403396e-001	5.320200e-003	-8.822845e-001	2.228694e-002
940840.841	7.783492e-001	4.494310e-002	4.406569e-001	5.399613e-003	4.402907e-001	4.763092e-003	-8.815244e-001	2.311387e-002
950550.551	7.785168e-001	4.281631e-002	4.401701e-001	4.854021e-003	4.406802e-001	4.973133e-003	-8.820388e-001	2.266510e-002
960260.260	7.785185e-001	4.241940e-002	4.401497e-001	4.726302e-003	4.406422e-001	4.732132e-003	-8.818497e-001	2.233398e-002
969969.970	7.781181e-001	4.201954e-002	4.400835e-001	4.800790e-003	4.407529e-001	4.583013e-003	-8.825801e-001	2.270813e-002
979679.680	7.784625e-001	4.185129e-002	4.402039e-001	4.998444e-003	4.405203e-001	4.353314e-003	-8.816998e-001	2.270402e-002
989389.389	7.783116e-001	3.995831e-002	4.403932e-001	4.177704e-003	4.406702e-001	3.674408e-003	-8.815836e-001	2.330864e-002
999099.099	7.789417e-001	3.961445e-002	4.404750e-001	3.954380e-003	4.413631e-001	4.015513e-003	-8.822224e-001	2.264594e-002
1008808.809	7.790202e-001	3.855913e-002	4.403118e-001	4.063206e-003	4.406801e-001	3.389593e-003	-8.815295e-001	2.355731e-002
1018518.519	7.787771e-001	3.761026e-002	4.400994e-001	3.768775e-003	4.407975e-001	2.795854e-003	-8.813960e-001	2.382904e-002
1028228.228	7.786670e-001	3.663519e-002	4.403489e-001	3.346776e-003	4.404457e-001	2.581455e-003	-8.811029e-001	2.322492e-002
1037937.938	7.786401e-001	3.616671e-002	4.401844e-001	2.898602e-003	4.404688e-001	2.721130e-003	-8.812207e-001	2.339831e-002
1047647.648	7.795563e-001	3.504016e-002	4.402544e-001	2.764579e-003	4.408785e-001	2.294588e-003	-8.818677e-001	2.375563e-002
1057357.357	7.796591e-001	3.423301e-002	4.406323e-001	2.069608e-003	4.405375e-001	1.676932e-003	-8.813948e-001	2.418785e-002
1067067.067	7.789193e-001	3.363605e-002	4.404103e-001	2.062855e-003	4.405280e-001	1.940106e-003	-8.814179e-001	2.403130e-002
1076776.777	7.793706e-001	3.247979e-002	4.403289e-001	1.895752e-003	4.404158e-001	1.519531e-003	-8.816908e-001	2.396311e-002
1086486.486	7.792058e-001	3.203710e-002	4.402664e-001	1.602552e-003	4.405187e-001	1.492706e-003	-8.817444e-001	2.402493e-002
1096196.196	7.790598e-001	3.108658e-002	4.406554e-001	1.589029e-003	4.403638e-001	1.173465e-003	-8.815759e-001	2.450306e-002
1105905.906	7.790284e-001	3.020610e-002	4.404767e-001	1.186808e-003	4.404636e-001	6.157198e-004	-8.817276e-001	2.479320e-002
1115615.616	7.790780e-001	2.958029e-002	4.403123e-001	1.288017e-003	4.406079e-001	8.000329e-004	-8.815732e-001	2.407274e-002
1125325.325	7.784906e-001	2.922801e-002	4.402068e-001	9.153007e-004	4.407030e-001	2.928850e-004	-8.808695e-001	2.437369e-002
1135035.035	7.788504e-001	2.721214e-002	4.403187e-001	2.903108e-004	4.406088e-001	-1.779639e-004	-8.806375e-001	2.415872e-002
1144744.745	7.794342e-001	2.699665e-002	4.408823e-001	-3.792068e-004	4.403938e-001	-1.371483e-004	-8.804951e-001	2.551011e-002
1154454.454	7.795768e-001	2.647467e-002	4.402149e-001	-1.690364e-004	4.400238e-001	-6.825798e-004	-8.805082e-001	2.556159e-002
1164164.164	7.795934e-001	2.607099e-002	4.407229e-001	-1.989700e-004	4.405967e-001	-6.389625e-004	-8.806751e-001	2.508132e-002
1173873.874	7.787112e-001	2.545292e-002	4.403609e-001	-2.330828e-004	4.404564e-001	-9.179747e-004	-8.804788e-001	2.582744e-002
1183583.584	7.791704e-001	2.465155e-002	4.405997e-001	-5.893313e-004	4.403246e-001	-7.599488e-004	-8.800775e-001	2.508076e-002
1193293.293	7.790020e-001	2.378303e-002	4.405634e-001	-7.809970e-004	4.404244e-001	-1.050645e-003	-8.807372e-001	2.588625e-002
1203003.003	7.796920e-001	2.311946e-002	4.409488e-001	-1.219886e-003	4.406971e-001	-1.795769e-003	-8.811166e-001	2.597074e-002
1212712.713	7.791023e-001	2.259104e-002	4.405493e-001	-1.278427e-003	4.408687e-001	-2.053866e-003	-8.810415e-001	2.514006e-002
1222422.422	7.796749e-001	2.228296e-002	4.406643e-001	-1.514175e-003	4.404688e-001	-1.923976e-003	-8.804240e-001	2.541592e-002
1232132.132	7.795371e-001	2.104308e-002	4.407688e-001	-1.972135e-003	4.404952e-001	-2.582226e-003	-8.803180e-001	2.624853e-002
1241841.842	7.789969e-001	2.059709e-002	4.404008e-001	-2.002413e-003	4.403646e-001	-2.599698e-003	-8.809603e-001	2.578445e-002
1251551.552	7.789460e-001	2.014006e-002	4.405951e-001	-1.503016e-003	4.399937e-001	-2.989674e-003	-8.808336e-001	2.637119e-002
1261261.261	7.794237e-001	1.987129e-002	4.406143e-001	-2.002146e-003	4.399434e-001	-2.258233e-003	-8.806784e-001	2.657215e-002
1270970.971	7.790680e-001	1.897172e-002	4.404280e-001	-2.036897e-003	4.401881e-001	-3.270344e-003	-8.803189e-001	2.682864e-002
1280680.681	7.792330e-001	1.814479e-002	4.407523e-001	-2.072825e-003	4.409767e-001	-3.349114e-003	-8.815856e-001	2.662294e-002
1290390.390	7.791844e-001	1.789799e-002	4.405845e-001	-2.336334e-003	4.406744e-001	-3.552158e-003	-8.801794e-001	2.662395e-002
1300100.100	7.792155e-001	1.709142e-002	4.406049e-001	-2.900937e-003	4.404435e-001	-3.712604e-003	-8.797501e-001	2.659408e-002
1309809.810	7.790543e-001	1.671075e-002	4.406242e-001	-2.961095e-003	4.402409e-001	-3.473786e-003	-8.804954e-001	2.670469e-002
1319519.520	7.787147e-001	1.606417e-002	4.403662e-001	-3.438733e-003	4.398017e-001	-4.098791e-003	-8.799447e-001	2.693561e-002
1329229.229	7.794146e-001	1.489806e-002	4.405721e-001	-3.654622e-003	4.400312e-001	-4.182032e-003	-8.796826e-001	2.657297e-002
1338938.939	7.789651e-001	1.432369e-002	4.403990e-001	-3.743016e-003	4.401050e-001	-4.738150e-003	-8.805538e-001	2.768409e-002
1348648.649	7.792305e-001	1.404324e-002	4.405829e-001	-3.970740e-003	4.401038e-001	-4.668464e-003	-8.796861e-001	2.735696e-002
1358358.358	7.790988e-001	1.343940e-002	4.404421e-001	-3.959935e-003	4.399626e-001	-4.826938e-003	-8.795952e-001	2.781019e-002
1368068.068	7.789653e-001	1.295717e-002	4.404445e-001	-4.252795e-003	4.401058e-001	-4.717538e-003	-8.804843e-001	2.722351e-002
1377777.778	7.795643e-001	1.240240e-002	4.407291e-001	-4.815886e-003	4.401780e-001	-5.334128e-003	-8.797644e-001	2.821543e-002
1387487.487	7.798672e-001	1.183263e-002	4.403926e-001	-4.313935e-003	4.401807e-001	-5.277413e-003	-8.799516e-001	2.802842e-002
1397197.197	7.796001e-001	1.087744e-002	4.404835e-001	-5.376475e-003	4.401622e-001	-5.479220e-003	-8.804112e-001	2.894620e-002
1406906.907	7.792860e-001	1.014124e-002	4.409319e-001	-5.430868e-003	4.404160e-001	-5.787999e-003	-8.803815e-001	2.810050e-002
1416616.617	7.794939e-001	1.024644e-002	4.409643e-001	-5.192689e-003	4.400007e-001	-6.238872e-003	-8.798175e-001	2.877515e-002
1426326.326	7.789076e-001	9.365043e-003	4.404439e-001	-5.517500e-003	4.401053e-001	-5.943768e-003	-8.799708e-001	2.854291e-002
1436036.036	7.784754e-001	9.286099e-003	4.401459e-001	-5.495685e-003	4.404662e-001	-6.443929e-003	-8.805624e-001	2.853147e-002
1445745.746	7.793991e-001	8.471620e-003	4.403693e-001	-6.014487e-003	4.399104e-001	-6.518012e-003	-8.799703e-001	2.831029e-002
1455455.455	7.789328e-001	7.706635e-003	4.403401e-001	-6.116797e-003	4.402011e-001	-6.756998e-003	-8.794113e-001	2.921549e-002
1465165.165	7.792646e-001	7.911256e-003	4.404476e-001	-5.746841e-003	4.404399e-001	-6.504726e-003	-8.799127e-001	2.884574e-002
1474874.875	7.785986e-001	6.875151e-003	4.400879e-001	-6.586641e-003	4.401933e-001	-7.504769e-003	-8.796095e-001	2.914551e-002
1484584.585	7.788060e-001	6.255760e-003	4.401745e-001	-6.757604e-003	4.399024e-001	-7.454139e-003	-8.791852e-001	2.916226e-002
1494294.294	7.791117e-001	5.709424e-003	4.400986e-001	-7.033369e-003	4.398451e-001	-7.417197e-003	-8.793506e-001	2.922964e-002
1504004.004	7.787051e-001	5.327427e-003	4.401870e-001	-7.210394e-003	4.399719e-001	-7.278460e-003	-8.795068e-001	2.912178e-002
1513713.714	7.797066e-001	4.567052e-003	4.403752e-001	-7.351923e-003	4.398942e-001	-7.831862e-003	-8.794105e-001	2.948143e-002
1523423.423	7.790630e-001	3.940803e-003	4.403712e-001	-7.504026e-003	4.399527e-001	-8.213890e-003	-8.792797e-001	2.989527e-002
1533133.133	7.791960e-001	3.798692e-003	4.402533e-001	-7.353477e-003	4.399405e-001	-8.106941e-003	-8.791645e-001	3.002152e-002
1542842.843	7.796194e-001	2.798387e-003	4.402182e-001	-8.005011e-003	4.399738e-001	-8.356104e-003	-8.798758e-001	3.013617e-002
1552552.553	7.793452e-001	2.497792e-003	4.401072e-001	-7.679850e-003	4.399044e-001	-8.728335e-003	-8.797019e-001	3.088662e-002
1562262.262	7.789948e-001	2.361453e-003	4.400408e-001	-7.815868e-003	4.394204e-001	-8.503375e-003	-8.789285e-001	2.988884e-002
1571971.972	7.796748e-001	1.729127e-003	4.406130e-001	-8.309272e-003	4.397172e-001	-8.976717e-003	-8.784096e-001	3.034806e-002
1581681.682	7.793221e-001	1.049127e-003	4.402361e-001	-8.544805e-003	4.398848e-001	-8.869389e-003	-8.787181e-001	3.081381e-002
1591391.391	7.787213e-001	3.843552e-004	4.398419e-001	-8.698249e-003	4.397685e-001	-9.218504e-003	-8.794568e-001	3.080570e-002
1601101.101	7.784593e-001	2.738748e-004	4.400904e-001	-8.592396e-003	4.397776e-001	-9.101452e-003	-8.790756e-001	2.992660e-002
1610810.811	7.793983e-001	-7.727189e-004	4.404782e-001	-9.390151e-003	4.401405e-001	-9.588772e-003	-8.790595e-001	3.093269e-002
1620520.521	7.795158e-001	-2.409259e-004	4.403479e-001	-9.116609e-003	4.399699e-001	-9.777991e-003	-8.790309e-001	3.146064e-002
1630230.230	7.789410e-001	-1.035306e-003	4.402582e-001	-9.305909e-003	4.400006e-001	-9.968025e-003	-8.797763e-001	3.166682e-002
1639939.940	7.791464e-001	-1.505653e-003	4.402666e-001	-9.393989e-003	4.396059e-001	-9.994307e-003	-8.794474e-001	3.175943e-002
1649649.650	7.791821e-001	-2.010105e-003	4.403039e-001	-9.760793e-003	4.396452e-001	-9.996853e-003	-8.787011e-001	3.087973e-002
1659359.359	7.792841e-001	-2.170945e-003	4.402910e-001	-9.507417e-003	4.396591e-001	-1.049213e-002	-8.789169e-001	3.161263e-002
1669069.069	7.791632e-001	-3.704967e-003	4.399353e-001	-1.033147e-002	4.397447e-001	-1.056613e-002	-8.793754e-001	3.188802e-002
1678778.779	7.787364e-001	-3.394861e-003	4.399586e-001	-1.003620e-002	4.395619e-001	-1.088375e-002	-8.790096e-001	3.184856e-002
1688488.488	7.789896e-001	-3.444879e-003	4.399533e-001	-1.018537e-002	4.396987e-001	-1.077875e-002	-8.793293e-001	3.179633e-002
1698198.198	7.786597e-001	-4.026087e-003	4.399773e-001	-1.027202e-002	4.395007e-001	-1.097181e-002	-8.787365e-001	3.250190e-002
1707907.908	7.793039e-001	-3.922088e-003	4.403548e-001	-1.003211e-002	4.396321e-001	-1.135906e-002	-8.784430e-001	3.254098e-002
1717617.618	7.788098e-001	-5.091249e-003	4.400729e-001	-1.077506e-002	4.396424e-001	-1.140809e-002	-8.793809e-001	3.233003e-002
1727327.327	7.790339e-001	-5.454406e-003	4.402079e-001	-1.085268e-002	4.399081e-001	-1.173087e-002	-8.792731e-001	3.228399e-002
1737037.037	7.791363e-001	-5.958723e-003	4.400455e-001	-1.107172e-002	4.391166e-001	-1.111721e-002	-8.782921e-001	3.218350e-002
1746746.747	7.790343e-001	-6.663802e-003	4.403521e-001	-1.132828e-002	4.396362e-001	-1.173552e-002	-8.786329e-001	3.271001e-002
1756456.456	7.789189e-001	-6.723533e-003	4.400396e-001	-1.127135e-002	4.401893e-001	-1.196593e-002	-8.786080e-001	3.299976e-002
1766166.166	7.787331e-001	-7.026555e-003	4.398723e-001	-1.135049e-002	4.396073e-001	-1.276148e-002	-8.780440e-001	3.348056e-002
1775875.876	7.790910e-001	-8.154457e-003	4.402849e-001	-1.165736e-002	4.398124e-001	-1.243621e-002	-8.785804e-001	3.317901e-002
1785585.586	7.789038e-001	-8.381750e-003	4.403362e-001	-1.196784e-002	4.398023e-001	-1.284785e-002	-8.786673e-001	3.434540e-002
1795295.295	7.786523e-001	-8.107488e-003	4.400265e-001	-1.174650e-002	4.394795e-001	-1.279494e-002	-8.787409e-001	3.314370e-002
1805005.005	7.788834e-001	-9.424236e-003	4.402136e-001	-1.217959e-002	4.395978e-001	-1.286897e-002	-8.788094e-001	3.351747e-002
1814714.715	7.785365e-001	-8.509831e-003	4.398300e-001	-1.203615e-002	4.394795e-001	-1.296585e-002	-8.785787e-001	3.364671e-002
