!Keysight Technologies,E5061B,MY49709559,B.05.06
!Date: Thu Apr 07 18:57:59 2022
!Data & Calibration Information:
!Freq	S11:SOLT2(ON)	S21:SOLT2(ON)	S12:SOLT2(ON)	S22:SOLT2(ON)
# Hz S RI R 50
300000.000	-5.146199e-001	4.986251e-001	-4.728383e-001	-4.915933e-001	-4.733961e-001	-4.873532e-001	-5.212249e-001	4.899975e-001
309709.710	-4.977631e-001	4.999685e-001	-4.903631e-001	-4.923532e-001	-4.921790e-001	-4.877297e-001	-5.035557e-001	4.924556e-001
319419.419	-4.814141e-001	5.001151e-001	-5.078917e-001	-4.925535e-001	-5.085823e-001	-4.884556e-001	-4.879461e-001	4.926185e-001
329129.129	-4.648522e-001	4.992047e-001	-5.242090e-001	-4.916981e-001	-5.251136e-001	-4.878452e-001	-4.715511e-001	4.931030e-001
338838.839	-4.491423e-001	4.983085e-001	-5.402527e-001	-4.904283e-001	-5.399644e-001	-4.861747e-001	-4.558499e-001	4.919742e-001
348548.549	-4.340075e-001	4.968133e-001	-5.560344e-001	-4.888900e-001	-5.567220e-001	-4.844452e-001	-4.402516e-001	4.917421e-001
358258.258	-4.189830e-001	4.948343e-001	-5.705168e-001	-4.868121e-001	-5.715488e-001	-4.822952e-001	-4.248597e-001	4.901020e-001
367967.968	-4.045043e-001	4.925096e-001	-5.851505e-001	-4.841437e-001	-5.856974e-001	-4.798206e-001	-4.110867e-001	4.877296e-001
377677.678	-3.906695e-001	4.897907e-001	-5.998004e-001	-4.815528e-001	-5.995700e-001	-4.769551e-001	-3.967746e-001	4.856303e-001
387387.387	-3.769116e-001	4.866608e-001	-6.130687e-001	-4.781100e-001	-6.128546e-001	-4.735284e-001	-3.834704e-001	4.826471e-001
397097.097	-3.638174e-001	4.834730e-001	-6.261205e-001	-4.744768e-001	-6.258034e-001	-4.700945e-001	-3.699665e-001	4.796334e-001
406806.807	-3.511428e-001	4.794973e-001	-6.388267e-001	-4.712507e-001	-6.388843e-001	-4.667907e-001	-3.577495e-001	4.763391e-001
416516.517	-3.388343e-001	4.754901e-001	-6.503975e-001	-4.670939e-001	-6.503556e-001	-4.624610e-001	-3.449679e-001	4.726507e-001
426226.226	-3.270455e-001	4.713808e-001	-6.624935e-001	-4.630497e-001	-6.626028e-001	-4.586119e-001	-3.334427e-001	4.691563e-001
435935.936	-3.154811e-001	4.669240e-001	-6.738716e-001	-4.588721e-001	-6.732374e-001	-4.540431e-001	-3.218959e-001	4.646590e-001
445645.646	-3.045735e-001	4.625192e-001	-6.855755e-001	-4.541941e-001	-6.842755e-001	-4.498175e-001	-3.110397e-001	4.606025e-001
455355.355	-2.938215e-001	4.580535e-001	-6.959010e-001	-4.495745e-001	-6.949087e-001	-4.447639e-001	-2.999527e-001	4.561802e-001
465065.065	-2.839937e-001	4.531341e-001	-7.063678e-001	-4.451210e-001	-7.053561e-001	-4.398244e-001	-2.895506e-001	4.519968e-001
474774.775	-2.733433e-001	4.486506e-001	-7.166252e-001	-4.394116e-001	-7.147753e-001	-4.348611e-001	-2.795934e-001	4.468806e-001
484484.484	-2.643595e-001	4.430561e-001	-7.256012e-001	-4.348057e-001	-7.239603e-001	-4.307619e-001	-2.699175e-001	4.421525e-001
494194.194	-2.551949e-001	4.384267e-001	-7.353673e-001	-4.299907e-001	-7.332977e-001	-4.254322e-001	-2.607230e-001	4.374318e-001
503903.904	-2.464341e-001	4.334570e-001	-7.444386e-001	-4.251492e-001	-7.420520e-001	-4.210842e-001	-2.520418e-001	4.328105e-001
513613.614	-2.379357e-001	4.280075e-001	-7.529747e-001	-4.194782e-001	-7.504183e-001	-4.155220e-001	-2.429395e-001	4.274354e-001
523323.323	-2.296613e-001	4.230602e-001	-7.617921e-001	-4.148149e-001	-7.596671e-001	-4.094599e-001	-2.338376e-001	4.225415e-001
533033.033	-2.213932e-001	4.176149e-001	-7.697844e-001	-4.084338e-001	-7.670449e-001	-4.040278e-001	-2.259383e-001	4.174362e-001
542742.743	-2.138753e-001	4.122894e-001	-7.769190e-001	-4.034012e-001	-7.749333e-001	-3.991362e-001	-2.179319e-001	4.121250e-001
552452.452	-2.063221e-001	4.069761e-001	-7.850276e-001	-3.977271e-001	-7.825874e-001	-3.939042e-001	-2.107615e-001	4.073962e-001
562162.162	-1.988758e-001	4.017284e-001	-7.923718e-001	-3.922785e-001	-7.900791e-001	-3.884896e-001	-2.033412e-001	4.018873e-001
571871.872	-1.919623e-001	3.965514e-001	-7.989867e-001	-3.865266e-001	-7.961405e-001	-3.831016e-001	-1.960835e-001	3.966864e-001
581581.582	-1.855110e-001	3.911680e-001	-8.062043e-001	-3.815029e-001	-8.028270e-001	-3.779628e-001	-1.897506e-001	3.912069e-001
591291.291	-1.786635e-001	3.857285e-001	-8.124896e-001	-3.757233e-001	-8.096470e-001	-3.722269e-001	-1.830209e-001	3.860018e-001
601001.001	-1.728295e-001	3.805701e-001	-8.187189e-001	-3.705649e-001	-8.152916e-001	-3.669172e-001	-1.765635e-001	3.809092e-001
610710.711	-1.664903e-001	3.751101e-001	-8.245438e-001	-3.650115e-001	-8.218465e-001	-3.615749e-001	-1.705462e-001	3.756253e-001
620420.420	-1.609241e-001	3.696932e-001	-8.305296e-001	-3.600586e-001	-8.270127e-001	-3.562669e-001	-1.647373e-001	3.699308e-001
630130.130	-1.550965e-001	3.642263e-001	-8.351167e-001	-3.542297e-001	-8.327732e-001	-3.503489e-001	-1.588781e-001	3.649982e-001
639839.840	-1.495819e-001	3.588777e-001	-8.411578e-001	-3.487062e-001	-8.378616e-001	-3.455784e-001	-1.538804e-001	3.597207e-001
649549.550	-1.446352e-001	3.539125e-001	-8.470371e-001	-3.433443e-001	-8.431765e-001	-3.400263e-001	-1.484078e-001	3.544043e-001
659259.259	-1.395934e-001	3.484345e-001	-8.516034e-001	-3.376498e-001	-8.480741e-001	-3.345660e-001	-1.430090e-001	3.492653e-001
668968.969	-1.348080e-001	3.434793e-001	-8.570378e-001	-3.331277e-001	-8.526961e-001	-3.297193e-001	-1.383010e-001	3.438723e-001
678678.679	-1.302384e-001	3.381193e-001	-8.610311e-001	-3.276191e-001	-8.580591e-001	-3.245578e-001	-1.337021e-001	3.395303e-001
688388.388	-1.257517e-001	3.331215e-001	-8.657824e-001	-3.229705e-001	-8.626434e-001	-3.193089e-001	-1.289791e-001	3.341817e-001
698098.098	-1.213064e-001	3.279007e-001	-8.700836e-001	-3.174829e-001	-8.669747e-001	-3.136659e-001	-1.245750e-001	3.292918e-001
707807.808	-1.171395e-001	3.230059e-001	-8.746965e-001	-3.118204e-001	-8.699442e-001	-3.093335e-001	-1.206813e-001	3.240654e-001
717517.518	-1.130341e-001	3.177981e-001	-8.783852e-001	-3.069181e-001	-8.744364e-001	-3.038812e-001	-1.161481e-001	3.191375e-001
727227.227	-1.089348e-001	3.133975e-001	-8.826897e-001	-3.021044e-001	-8.786582e-001	-2.989551e-001	-1.121703e-001	3.141163e-001
736936.937	-1.052420e-001	3.078218e-001	-8.860881e-001	-2.963989e-001	-8.819421e-001	-2.941038e-001	-1.081932e-001	3.091609e-001
746646.647	-1.013819e-001	3.032592e-001	-8.899646e-001	-2.916723e-001	-8.851723e-001	-2.896839e-001	-1.048446e-001	3.042920e-001
756356.356	-9.815074e-002	2.982125e-001	-8.937752e-001	-2.869610e-001	-8.892505e-001	-2.841478e-001	-1.010150e-001	2.993009e-001
766066.066	-9.457158e-002	2.936650e-001	-8.968563e-001	-2.816805e-001	-8.924200e-001	-2.798518e-001	-9.747108e-002	2.946567e-001
775775.776	-9.149292e-002	2.890023e-001	-8.998753e-001	-2.771348e-001	-8.950068e-001	-2.749143e-001	-9.450319e-002	2.900108e-001
785485.485	-8.817280e-002	2.840610e-001	-9.032509e-001	-2.721382e-001	-8.994112e-001	-2.699795e-001	-9.114943e-002	2.853531e-001
795195.195	-8.500918e-002	2.795392e-001	-9.065932e-001	-2.676545e-001	-9.018024e-001	-2.644551e-001	-8.767693e-002	2.806999e-001
804904.905	-8.208890e-002	2.747633e-001	-9.098503e-001	-2.623101e-001	-9.049519e-001	-2.603791e-001	-8.485860e-002	2.760940e-001
814614.615	-7.923101e-002	2.702231e-001	-9.128879e-001	-2.581542e-001	-9.075577e-001	-2.554770e-001	-8.184728e-002	2.713319e-001
824324.324	-7.672398e-002	2.655363e-001	-9.149188e-001	-2.536041e-001	-9.108064e-001	-2.508013e-001	-7.876274e-002	2.669936e-001
834034.034	-7.412091e-002	2.611825e-001	-9.187035e-001	-2.492813e-001	-9.136245e-001	-2.465665e-001	-7.625473e-002	2.623147e-001
843743.744	-7.108864e-002	2.564519e-001	-9.205315e-001	-2.436092e-001	-9.152617e-001	-2.417807e-001	-7.377983e-002	2.578053e-001
853453.453	-6.869017e-002	2.524276e-001	-9.232649e-001	-2.399737e-001	-9.184857e-001	-2.372640e-001	-7.110779e-002	2.535473e-001
863163.163	-6.610009e-002	2.476612e-001	-9.257031e-001	-2.347202e-001	-9.207471e-001	-2.327978e-001	-6.867203e-002	2.491072e-001
872872.873	-6.413861e-002	2.436317e-001	-9.280638e-001	-2.308030e-001	-9.226446e-001	-2.285284e-001	-6.633303e-002	2.449758e-001
882582.583	-6.136109e-002	2.391322e-001	-9.305672e-001	-2.251868e-001	-9.255227e-001	-2.242997e-001	-6.388564e-002	2.407394e-001
892292.292	-5.906359e-002	2.350452e-001	-9.324398e-001	-2.219185e-001	-9.272604e-001	-2.196796e-001	-6.157741e-002	2.365285e-001
902002.002	-5.727861e-002	2.308030e-001	-9.343969e-001	-2.168132e-001	-9.303214e-001	-2.154567e-001	-5.946188e-002	2.320553e-001
911711.712	-5.506934e-002	2.264925e-001	-9.365156e-001	-2.128881e-001	-9.316024e-001	-2.114039e-001	-5.729923e-002	2.280376e-001
921421.421	-5.293770e-002	2.219447e-001	-9.383662e-001	-2.082293e-001	-9.342498e-001	-2.076721e-001	-5.552741e-002	2.240091e-001
931131.131	-5.105595e-002	2.183663e-001	-9.403991e-001	-2.040795e-001	-9.354969e-001	-2.031830e-001	-5.346413e-002	2.198660e-001
940840.841	-4.952027e-002	2.143390e-001	-9.416417e-001	-2.001617e-001	-9.372363e-001	-1.987772e-001	-5.132387e-002	2.155477e-001
950550.551	-4.720634e-002	2.103292e-001	-9.436902e-001	-1.950202e-001	-9.391827e-001	-1.950903e-001	-4.969047e-002	2.117056e-001
960260.260	-4.574246e-002	2.061965e-001	-9.455177e-001	-1.913671e-001	-9.402271e-001	-1.910349e-001	-4.796555e-002	2.077968e-001
969969.970	-4.420509e-002	2.023079e-001	-9.472279e-001	-1.875105e-001	-9.424301e-001	-1.866394e-001	-4.612616e-002	2.038649e-001
979679.680	-4.251646e-002	1.985488e-001	-9.492660e-001	-1.838668e-001	-9.447868e-001	-1.831818e-001	-4.450391e-002	1.999015e-001
989389.389	-4.094477e-002	1.944635e-001	-9.504115e-001	-1.791668e-001	-9.456885e-001	-1.792674e-001	-4.301988e-002	1.963414e-001
999099.099	-3.961110e-002	1.906504e-001	-9.519277e-001	-1.756151e-001	-9.475905e-001	-1.756414e-001	-4.135601e-002	1.923798e-001
1008808.809	-3.778138e-002	1.868892e-001	-9.532336e-001	-1.717386e-001	-9.483353e-001	-1.711324e-001	-4.000146e-002	1.882602e-001
1018518.519	-3.645994e-002	1.831666e-001	-9.546528e-001	-1.673910e-001	-9.500667e-001	-1.670564e-001	-3.824443e-002	1.846374e-001
1028228.228	-3.510702e-002	1.793559e-001	-9.556602e-001	-1.640894e-001	-9.514908e-001	-1.635920e-001	-3.690561e-002	1.810560e-001
1037937.938	-3.332493e-002	1.758103e-001	-9.575640e-001	-1.597633e-001	-9.528502e-001	-1.594414e-001	-3.559142e-002	1.772447e-001
1047647.648	-3.253004e-002	1.723098e-001	-9.588328e-001	-1.557995e-001	-9.538928e-001	-1.557968e-001	-3.434571e-002	1.736500e-001
1057357.357	-3.116332e-002	1.683868e-001	-9.598543e-001	-1.523245e-001	-9.554595e-001	-1.512643e-001	-3.284301e-002	1.698274e-001
1067067.067	-3.002089e-002	1.650625e-001	-9.610026e-001	-1.490585e-001	-9.563446e-001	-1.479199e-001	-3.169776e-002	1.661052e-001
1076776.777	-2.874334e-002	1.613490e-001	-9.621227e-001	-1.450581e-001	-9.575091e-001	-1.446163e-001	-3.070252e-002	1.624010e-001
1086486.486	-2.781279e-002	1.579285e-001	-9.636695e-001	-1.412302e-001	-9.589706e-001	-1.409208e-001	-2.956178e-002	1.592495e-001
1096196.196	-2.654034e-002	1.543103e-001	-9.643630e-001	-1.373486e-001	-9.599647e-001	-1.372287e-001	-2.817786e-002	1.559708e-001
1105905.906	-2.550707e-002	1.511205e-001	-9.655783e-001	-1.345238e-001	-9.609410e-001	-1.336985e-001	-2.737816e-002	1.523250e-001
1115615.616	-2.456015e-002	1.476331e-001	-9.664624e-001	-1.304374e-001	-9.619485e-001	-1.307055e-001	-2.634352e-002	1.489873e-001
1125325.325	-2.367731e-002	1.439242e-001	-9.670629e-001	-1.262344e-001	-9.631552e-001	-1.273142e-001	-2.518665e-002	1.455227e-001
1135035.035	-2.279342e-002	1.404160e-001	-9.681260e-001	-1.237386e-001	-9.641627e-001	-1.232820e-001	-2.448529e-002	1.422179e-001
1144744.745	-2.209072e-002	1.373191e-001	-9.690171e-001	-1.202325e-001	-9.649462e-001	-1.196612e-001	-2.388637e-002	1.390418e-001
1154454.454	-2.077514e-002	1.339754e-001	-9.698314e-001	-1.163790e-001	-9.650546e-001	-1.173439e-001	-2.279392e-002	1.353952e-001
1164164.164	-2.032636e-002	1.308396e-001	-9.710119e-001	-1.137878e-001	-9.661408e-001	-1.132114e-001	-2.217285e-002	1.320695e-001
1173873.874	-1.950217e-002	1.273168e-001	-9.713657e-001	-1.097148e-001	-9.669052e-001	-1.104449e-001	-2.099008e-002	1.293705e-001
1183583.584	-1.866670e-002	1.242486e-001	-9.723607e-001	-1.068176e-001	-9.675251e-001	-1.069145e-001	-2.029612e-002	1.259373e-001
1193293.293	-1.788241e-002	1.211261e-001	-9.732341e-001	-1.037569e-001	-9.679984e-001	-1.033932e-001	-1.962673e-002	1.224817e-001
1203003.003	-1.720491e-002	1.177963e-001	-9.733384e-001	-1.002754e-001	-9.686001e-001	-1.002642e-001	-1.877270e-002	1.190994e-001
1212712.713	-1.647936e-002	1.147399e-001	-9.744879e-001	-9.663761e-002	-9.692081e-001	-9.678884e-002	-1.815720e-002	1.161284e-001
1222422.422	-1.584946e-002	1.116048e-001	-9.746015e-001	-9.315207e-002	-9.696170e-001	-9.347918e-002	-1.741250e-002	1.130288e-001
1232132.132	-1.512731e-002	1.083577e-001	-9.748644e-001	-8.989218e-002	-9.712853e-001	-9.062562e-002	-1.675181e-002	1.098506e-001
1241841.842	-1.449090e-002	1.054064e-001	-9.762608e-001	-8.696214e-002	-9.713674e-001	-8.737147e-002	-1.597875e-002	1.067622e-001
1251551.552	-1.401246e-002	1.021560e-001	-9.763018e-001	-8.305168e-002	-9.728110e-001	-8.427664e-002	-1.559912e-002	1.039160e-001
1261261.261	-1.343065e-002	9.944479e-002	-9.777463e-001	-8.016730e-002	-9.726662e-001	-8.108626e-002	-1.502760e-002	1.007692e-001
1270970.971	-1.288706e-002	9.615400e-002	-9.769449e-001	-7.670581e-002	-9.730680e-001	-7.797031e-002	-1.450282e-002	9.765052e-002
1280680.681	-1.265596e-002	9.317971e-002	-9.782317e-001	-7.382911e-002	-9.735659e-001	-7.459513e-002	-1.395307e-002	9.463625e-002
1290390.390	-1.189173e-002	9.040248e-002	-9.777605e-001	-7.095195e-002	-9.741464e-001	-7.178086e-002	-1.347664e-002	9.165344e-002
1300100.100	-1.162342e-002	8.743356e-002	-9.791943e-001	-6.851181e-002	-9.749117e-001	-6.835665e-002	-1.297981e-002	8.879147e-002
1309809.810	-1.104432e-002	8.469419e-002	-9.800086e-001	-6.513315e-002	-9.746290e-001	-6.511295e-002	-1.246416e-002	8.583182e-002
1319519.520	-1.065687e-002	8.155676e-002	-9.799621e-001	-6.198527e-002	-9.754477e-001	-6.321792e-002	-1.211462e-002	8.299399e-002
1329229.229	-1.026251e-002	7.863628e-002	-9.799369e-001	-5.978868e-002	-9.752900e-001	-5.971542e-002	-1.165042e-002	8.005979e-002
1338938.939	-1.009414e-002	7.592890e-002	-9.804389e-001	-5.674242e-002	-9.758847e-001	-5.701959e-002	-1.143469e-002	7.726070e-002
1348648.649	-9.544323e-003	7.310077e-002	-9.808932e-001	-5.305080e-002	-9.761108e-001	-5.435516e-002	-1.089624e-002	7.442430e-002
1358358.358	-9.292608e-003	7.019837e-002	-9.809907e-001	-4.957616e-002	-9.766789e-001	-5.127267e-002	-1.074822e-002	7.163677e-002
1368068.068	-8.837442e-003	6.746360e-002	-9.814713e-001	-4.755998e-002	-9.767931e-001	-4.786011e-002	-1.038389e-002	6.881586e-002
1377777.778	-8.553271e-003	6.476460e-002	-9.811009e-001	-4.454268e-002	-9.773911e-001	-4.536284e-002	-1.008016e-002	6.610816e-002
1387487.487	-8.312497e-003	6.195780e-002	-9.817221e-001	-4.193921e-002	-9.777390e-001	-4.282663e-002	-9.780726e-003	6.319983e-002
1397197.197	-7.985803e-003	5.949285e-002	-9.820477e-001	-3.964060e-002	-9.776984e-001	-3.951581e-002	-9.262904e-003	6.067462e-002
1406906.907	-7.771948e-003	5.667237e-002	-9.830419e-001	-3.610184e-002	-9.784890e-001	-3.669214e-002	-9.331680e-003	5.803627e-002
1416616.617	-7.414925e-003	5.409788e-002	-9.824951e-001	-3.346345e-002	-9.784078e-001	-3.405847e-002	-8.904030e-003	5.534452e-002
1426326.326	-7.240171e-003	5.139033e-002	-9.827336e-001	-3.017273e-002	-9.787969e-001	-3.112272e-002	-8.775012e-003	5.271788e-002
1436036.036	-7.178749e-003	4.864106e-002	-9.827611e-001	-2.757494e-002	-9.788368e-001	-2.863895e-002	-8.495771e-003	4.999721e-002
1445745.746	-6.925657e-003	4.595209e-002	-9.834365e-001	-2.518350e-002	-9.789639e-001	-2.629049e-002	-8.485739e-003	4.736968e-002
1455455.455	-6.754526e-003	4.349209e-002	-9.837816e-001	-2.227178e-002	-9.790168e-001	-2.362622e-002	-8.235267e-003	4.485458e-002
1465165.165	-6.492906e-003	4.093338e-002	-9.833280e-001	-1.978523e-002	-9.792742e-001	-2.065995e-002	-8.236944e-003	4.215393e-002
1474874.875	-6.400157e-003	3.837987e-002	-9.835005e-001	-1.749588e-002	-9.799450e-001	-1.772474e-002	-8.169833e-003	3.970340e-002
1484584.585	-6.228193e-003	3.582171e-002	-9.841225e-001	-1.398322e-002	-9.793804e-001	-1.590228e-002	-7.914339e-003	3.720199e-002
1494294.294	-6.218508e-003	3.322470e-002	-9.833464e-001	-1.105616e-002	-9.795543e-001	-1.337084e-002	-7.909145e-003	3.452130e-002
1504004.004	-6.069442e-003	3.071993e-002	-9.836465e-001	-8.429620e-003	-9.799334e-001	-1.062378e-002	-7.723809e-003	3.211536e-002
1513713.714	-5.864049e-003	2.821216e-002	-9.842934e-001	-6.223470e-003	-9.798903e-001	-7.727648e-003	-7.642044e-003	2.935532e-002
1523423.423	-5.820824e-003	2.590559e-002	-9.841518e-001	-3.545606e-003	-9.800753e-001	-5.106799e-003	-7.580229e-003	2.719905e-002
1533133.133	-5.786855e-003	2.318163e-002	-9.835439e-001	-1.108405e-003	-9.793057e-001	-2.981502e-003	-7.654005e-003	2.450368e-002
1542842.843	-5.695627e-003	2.082682e-002	-9.838183e-001	1.845735e-003	-9.799515e-001	1.549070e-004	-7.549406e-003	2.212680e-002
1552552.553	-5.518229e-003	1.828246e-002	-9.838702e-001	4.145861e-003	-9.799107e-001	2.605297e-003	-7.598321e-003	1.961331e-002
1562262.262	-5.786925e-003	1.584520e-002	-9.835226e-001	6.866413e-003	-9.798039e-001	5.145600e-003	-7.474940e-003	1.746578e-002
1571971.972	-5.750523e-003	1.339180e-002	-9.840690e-001	9.427798e-003	-9.797041e-001	7.665757e-003	-7.576412e-003	1.481036e-002
1581681.682	-5.701595e-003	1.110838e-002	-9.837440e-001	1.168521e-002	-9.797498e-001	9.726609e-003	-7.683064e-003	1.256900e-002
1591391.391	-5.698977e-003	8.982761e-003	-9.835307e-001	1.446790e-002	-9.799168e-001	1.323106e-002	-7.602814e-003	1.015097e-002
1601101.101	-5.736023e-003	6.479736e-003	-9.839671e-001	1.645208e-002	-9.790377e-001	1.460156e-002	-7.600876e-003	7.715968e-003
1610810.811	-5.986321e-003	4.171660e-003	-9.836820e-001	1.885793e-002	-9.798353e-001	1.743305e-002	-7.632813e-003	5.517179e-003
1620520.521	-6.059819e-003	1.682785e-003	-9.831027e-001	2.184253e-002	-9.796228e-001	2.009056e-002	-7.667738e-003	3.233625e-003
1630230.230	-5.985584e-003	-6.980866e-004	-9.832935e-001	2.414590e-002	-9.794937e-001	2.218442e-002	-7.885040e-003	7.280724e-004
1639939.940	-6.179621e-003	-2.778492e-003	-9.834297e-001	2.647071e-002	-9.796446e-001	2.526432e-002	-7.772788e-003	-1.497419e-003
1649649.650	-6.097883e-003	-5.147293e-003	-9.835634e-001	2.907177e-002	-9.793039e-001	2.715110e-002	-7.839287e-003	-3.596674e-003
1659359.359	-6.282163e-003	-7.277122e-003	-9.830556e-001	3.164013e-002	-9.795919e-001	2.974855e-002	-8.128752e-003	-6.051302e-003
1669069.069	-6.173301e-003	-9.719861e-003	-9.824823e-001	3.429588e-002	-9.793305e-001	3.230177e-002	-8.141501e-003	-8.331890e-003
1678778.779	-6.427750e-003	-1.182664e-002	-9.826189e-001	3.585680e-002	-9.787595e-001	3.425749e-002	-8.356309e-003	-1.053841e-002
1688488.488	-6.652883e-003	-1.420357e-002	-9.822783e-001	3.852735e-002	-9.783173e-001	3.645919e-002	-8.421561e-003	-1.264392e-002
1698198.198	-6.706518e-003	-1.616252e-002	-9.823746e-001	4.073109e-002	-9.783554e-001	3.893856e-002	-8.584790e-003	-1.493778e-002
1707907.908	-6.861591e-003	-1.835439e-002	-9.818622e-001	4.236360e-002	-9.784397e-001	4.123335e-002	-8.722767e-003	-1.732827e-002
1717617.618	-7.082000e-003	-2.077139e-002	-9.815674e-001	4.546681e-002	-9.785674e-001	4.365002e-002	-8.935354e-003	-1.941715e-002
1727327.327	-7.212955e-003	-2.281196e-002	-9.815078e-001	4.771895e-002	-9.777612e-001	4.590945e-002	-8.948559e-003	-2.141605e-002
1737037.037	-7.335756e-003	-2.513286e-002	-9.816277e-001	4.986726e-002	-9.781534e-001	4.807675e-002	-9.104212e-003	-2.354911e-002
1746746.747	-7.508403e-003	-2.727457e-002	-9.811681e-001	5.236032e-002	-9.775361e-001	5.013573e-002	-9.413567e-003	-2.569603e-002
1756456.456	-7.885834e-003	-2.925027e-002	-9.805842e-001	5.478183e-002	-9.774232e-001	5.300328e-002	-9.744538e-003	-2.793734e-002
1766166.166	-7.856126e-003	-3.142571e-002	-9.808242e-001	5.674531e-002	-9.771038e-001	5.454888e-002	-9.945195e-003	-3.012234e-002
1775875.876	-8.141874e-003	-3.333521e-002	-9.805840e-001	5.945388e-002	-9.778270e-001	5.656029e-002	-1.008149e-002	-3.214289e-002
