!Keysight Technologies,E5061B,MY49709559,B.05.06
!Date: Thu Apr 07 19:00:01 2022
!Data & Calibration Information:
!Freq	S11:SOLT2(ON)	S21:SOLT2(ON)	S12:SOLT2(ON)	S22:SOLT2(ON)
# Hz S RI R 50
300000.000	8.665227e-001	2.269619e-001	-4.637181e-001	-5.885065e-002	-4.554419e-001	-5.319973e-002	-8.734416e-001	1.782654e-002
309709.710	8.667079e-001	2.178486e-001	-4.639844e-001	-5.564171e-002	-4.571984e-001	-5.139328e-002	-8.741239e-001	1.749263e-002
319419.419	8.672397e-001	2.102209e-001	-4.638254e-001	-5.389437e-002	-4.582646e-001	-5.020892e-002	-8.745105e-001	1.660994e-002
329129.129	8.677201e-001	2.031797e-001	-4.639752e-001	-5.206481e-002	-4.593119e-001	-4.832999e-002	-8.748142e-001	1.752007e-002
338838.839	8.684223e-001	1.966643e-001	-4.641793e-001	-5.027318e-002	-4.600214e-001	-4.647295e-002	-8.750173e-001	1.721275e-002
348548.549	8.697760e-001	1.904394e-001	-4.644304e-001	-4.851308e-002	-4.612594e-001	-4.537334e-002	-8.756524e-001	1.716383e-002
358258.258	8.704912e-001	1.849317e-001	-4.647864e-001	-4.693729e-002	-4.616281e-001	-4.401057e-002	-8.757732e-001	1.670878e-002
367967.968	8.714930e-001	1.787599e-001	-4.648129e-001	-4.519769e-002	-4.618884e-001	-4.256648e-002	-8.755606e-001	1.684301e-002
377677.678	8.717929e-001	1.737204e-001	-4.650213e-001	-4.406110e-002	-4.625114e-001	-4.136567e-002	-8.758068e-001	1.628478e-002
387387.387	8.731571e-001	1.684336e-001	-4.654652e-001	-4.279628e-002	-4.628486e-001	-4.028719e-002	-8.762508e-001	1.585531e-002
397097.097	8.737753e-001	1.634108e-001	-4.655961e-001	-4.096947e-002	-4.628376e-001	-3.899484e-002	-8.750191e-001	1.649481e-002
406806.807	8.741744e-001	1.593556e-001	-4.656567e-001	-4.031237e-002	-4.627946e-001	-3.776014e-002	-8.747399e-001	1.599208e-002
416516.517	8.749027e-001	1.546460e-001	-4.662661e-001	-3.890819e-002	-4.635465e-001	-3.687365e-002	-8.754830e-001	1.603681e-002
426226.226	8.750712e-001	1.505469e-001	-4.661916e-001	-3.780449e-002	-4.635237e-001	-3.584369e-002	-8.749221e-001	1.548761e-002
435935.936	8.751186e-001	1.464720e-001	-4.660157e-001	-3.715987e-002	-4.638025e-001	-3.467632e-002	-8.748253e-001	1.557994e-002
445645.646	8.764481e-001	1.431715e-001	-4.668592e-001	-3.608724e-002	-4.638865e-001	-3.391758e-002	-8.750140e-001	1.586835e-002
455355.355	8.765904e-001	1.390087e-001	-4.666166e-001	-3.500589e-002	-4.641793e-001	-3.298281e-002	-8.753207e-001	1.565685e-002
465065.065	8.772748e-001	1.355864e-001	-4.669876e-001	-3.386583e-002	-4.645943e-001	-3.212943e-002	-8.753262e-001	1.547890e-002
474774.775	8.776780e-001	1.320210e-001	-4.669577e-001	-3.303334e-002	-4.644719e-001	-3.109058e-002	-8.755921e-001	1.555451e-002
484484.484	8.780384e-001	1.293363e-001	-4.671806e-001	-3.202643e-002	-4.644927e-001	-3.023167e-002	-8.757583e-001	1.541524e-002
494194.194	8.780699e-001	1.260814e-001	-4.669999e-001	-3.123288e-002	-4.649150e-001	-2.969341e-002	-8.759115e-001	1.557475e-002
503903.904	8.787139e-001	1.228063e-001	-4.670533e-001	-3.027897e-002	-4.647051e-001	-2.874396e-002	-8.753062e-001	1.588935e-002
513613.614	8.791551e-001	1.201812e-001	-4.674345e-001	-2.945239e-002	-4.648456e-001	-2.811176e-002	-8.753513e-001	1.580739e-002
523323.323	8.795978e-001	1.165450e-001	-4.674081e-001	-2.846360e-002	-4.651928e-001	-2.699794e-002	-8.755654e-001	1.625971e-002
533033.033	8.791832e-001	1.136843e-001	-4.672860e-001	-2.743992e-002	-4.648884e-001	-2.632054e-002	-8.753762e-001	1.544712e-002
542742.743	8.801437e-001	1.118565e-001	-4.677256e-001	-2.710716e-002	-4.655236e-001	-2.572153e-002	-8.754016e-001	1.589783e-002
552452.452	8.802053e-001	1.087294e-001	-4.677207e-001	-2.629289e-002	-4.658475e-001	-2.539462e-002	-8.756494e-001	1.559267e-002
562162.162	8.797401e-001	1.065593e-001	-4.674356e-001	-2.578868e-002	-4.655242e-001	-2.406108e-002	-8.751832e-001	1.625562e-002
571871.872	8.807182e-001	1.041731e-001	-4.676871e-001	-2.497374e-002	-4.658123e-001	-2.364594e-002	-8.755109e-001	1.619363e-002
581581.582	8.811987e-001	1.007844e-001	-4.678196e-001	-2.335992e-002	-4.654141e-001	-2.318236e-002	-8.748980e-001	1.625676e-002
591291.291	8.809606e-001	9.924260e-002	-4.678996e-001	-2.337512e-002	-4.657692e-001	-2.285516e-002	-8.750509e-001	1.593489e-002
601001.001	8.812008e-001	9.655693e-002	-4.679734e-001	-2.234557e-002	-4.654984e-001	-2.191389e-002	-8.747226e-001	1.606114e-002
610710.711	8.814391e-001	9.490058e-002	-4.681306e-001	-2.212677e-002	-4.658623e-001	-2.136229e-002	-8.751311e-001	1.560323e-002
620420.420	8.813517e-001	9.308499e-002	-4.679776e-001	-2.170558e-002	-4.656097e-001	-2.094834e-002	-8.750485e-001	1.552987e-002
630130.130	8.819928e-001	9.082748e-002	-4.679747e-001	-2.134789e-002	-4.659424e-001	-2.023357e-002	-8.753138e-001	1.634094e-002
639839.840	8.822162e-001	8.852818e-002	-4.680485e-001	-2.047313e-002	-4.658287e-001	-2.004449e-002	-8.749151e-001	1.605643e-002
649549.550	8.819667e-001	8.634158e-002	-4.683868e-001	-1.983319e-002	-4.660029e-001	-1.942207e-002	-8.752110e-001	1.630640e-002
659259.259	8.822478e-001	8.503167e-002	-4.682817e-001	-1.938691e-002	-4.658604e-001	-1.839587e-002	-8.748098e-001	1.635927e-002
668968.969	8.817867e-001	8.324241e-002	-4.681667e-001	-1.903194e-002	-4.659957e-001	-1.857591e-002	-8.747732e-001	1.636140e-002
678678.679	8.818904e-001	8.110839e-002	-4.684287e-001	-1.833713e-002	-4.659179e-001	-1.796116e-002	-8.747735e-001	1.664705e-002
688388.388	8.816415e-001	7.961115e-002	-4.678922e-001	-1.806078e-002	-4.663416e-001	-1.704979e-002	-8.750579e-001	1.644088e-002
698098.098	8.819369e-001	7.821291e-002	-4.680333e-001	-1.790827e-002	-4.662812e-001	-1.671732e-002	-8.753217e-001	1.647930e-002
707807.808	8.826679e-001	7.619071e-002	-4.687505e-001	-1.705771e-002	-4.662882e-001	-1.684375e-002	-8.750702e-001	1.619027e-002
717517.518	8.825760e-001	7.423870e-002	-4.682428e-001	-1.636424e-002	-4.663010e-001	-1.599545e-002	-8.749969e-001	1.652140e-002
727227.227	8.822438e-001	7.277479e-002	-4.680429e-001	-1.607768e-002	-4.664141e-001	-1.552970e-002	-8.748885e-001	1.645417e-002
736936.937	8.824450e-001	7.106671e-002	-4.682729e-001	-1.510434e-002	-4.662864e-001	-1.542559e-002	-8.746988e-001	1.622573e-002
746646.647	8.826122e-001	6.989165e-002	-4.683180e-001	-1.511226e-002	-4.662568e-001	-1.486706e-002	-8.749217e-001	1.667833e-002
756356.356	8.821253e-001	6.804468e-002	-4.680030e-001	-1.460856e-002	-4.662456e-001	-1.505985e-002	-8.751245e-001	1.605917e-002
766066.066	8.824764e-001	6.665387e-002	-4.683610e-001	-1.427891e-002	-4.664957e-001	-1.399648e-002	-8.750366e-001	1.648226e-002
775775.776	8.829033e-001	6.495453e-002	-4.686353e-001	-1.361987e-002	-4.664553e-001	-1.419104e-002	-8.752292e-001	1.625487e-002
785485.485	8.832817e-001	6.459595e-002	-4.688975e-001	-1.393410e-002	-4.663035e-001	-1.329530e-002	-8.747624e-001	1.639170e-002
795195.195	8.823010e-001	6.273269e-002	-4.681560e-001	-1.317420e-002	-4.663793e-001	-1.293972e-002	-8.747617e-001	1.668322e-002
804904.905	8.829695e-001	6.096082e-002	-4.684774e-001	-1.238160e-002	-4.664748e-001	-1.257794e-002	-8.743715e-001	1.673199e-002
814614.615	8.836872e-001	5.949321e-002	-4.688796e-001	-1.228701e-002	-4.663471e-001	-1.205212e-002	-8.744263e-001	1.658665e-002
824324.324	8.828601e-001	5.841148e-002	-4.685269e-001	-1.194620e-002	-4.669814e-001	-1.184343e-002	-8.750412e-001	1.669469e-002
834034.034	8.830768e-001	5.743183e-002	-4.687084e-001	-1.173242e-002	-4.664551e-001	-1.145144e-002	-8.747031e-001	1.679765e-002
843743.744	8.833338e-001	5.603973e-002	-4.688194e-001	-1.146388e-002	-4.663823e-001	-1.110164e-002	-8.747195e-001	1.688155e-002
853453.453	8.829722e-001	5.436761e-002	-4.684418e-001	-1.045507e-002	-4.665388e-001	-1.050924e-002	-8.746699e-001	1.744649e-002
863163.163	8.832401e-001	5.408082e-002	-4.689107e-001	-1.074873e-002	-4.660786e-001	-1.045006e-002	-8.743070e-001	1.704918e-002
872872.873	8.829471e-001	5.266286e-002	-4.686871e-001	-1.029464e-002	-4.662891e-001	-1.009640e-002	-8.743962e-001	1.727125e-002
882582.583	8.834354e-001	5.118713e-002	-4.686267e-001	-9.827821e-003	-4.669939e-001	-9.925828e-003	-8.749527e-001	1.749455e-002
892292.292	8.836487e-001	5.014214e-002	-4.687846e-001	-9.470391e-003	-4.666518e-001	-9.168885e-003	-8.749494e-001	1.820470e-002
902002.002	8.826067e-001	4.865712e-002	-4.684501e-001	-9.371131e-003	-4.666971e-001	-8.928764e-003	-8.742371e-001	1.801468e-002
911711.712	8.827739e-001	4.820563e-002	-4.683265e-001	-8.661050e-003	-4.663096e-001	-8.776447e-003	-8.744218e-001	1.838112e-002
921421.421	8.826122e-001	4.727928e-002	-4.685803e-001	-8.479468e-003	-4.666385e-001	-8.379081e-003	-8.744122e-001	1.796390e-002
931131.131	8.826879e-001	4.587001e-002	-4.685318e-001	-8.068767e-003	-4.664882e-001	-8.092248e-003	-8.741520e-001	1.835393e-002
940840.841	8.826171e-001	4.460061e-002	-4.683189e-001	-7.802418e-003	-4.664920e-001	-7.610613e-003	-8.741863e-001	1.846506e-002
950550.551	8.831972e-001	4.378553e-002	-4.686998e-001	-7.313441e-003	-4.665925e-001	-7.840959e-003	-8.742900e-001	1.821611e-002
960260.260	8.829744e-001	4.253528e-002	-4.685614e-001	-7.282482e-003	-4.663847e-001	-7.363798e-003	-8.740817e-001	1.846895e-002
969969.970	8.832971e-001	4.156272e-002	-4.688000e-001	-6.693410e-003	-4.666120e-001	-6.961830e-003	-8.743605e-001	1.877280e-002
979679.680	8.826866e-001	4.058273e-002	-4.683629e-001	-6.796234e-003	-4.667558e-001	-7.027556e-003	-8.746176e-001	1.828779e-002
989389.389	8.822311e-001	3.963515e-002	-4.681681e-001	-6.191826e-003	-4.667020e-001	-6.763393e-003	-8.746639e-001	1.840136e-002
999099.099	8.828387e-001	3.847848e-002	-4.684790e-001	-5.620410e-003	-4.670244e-001	-6.476825e-003	-8.745931e-001	1.834678e-002
1008808.809	8.831027e-001	3.789537e-002	-4.685937e-001	-5.405296e-003	-4.667442e-001	-6.214514e-003	-8.744308e-001	1.867148e-002
1018518.519	8.828373e-001	3.673237e-002	-4.683872e-001	-5.509432e-003	-4.665295e-001	-6.011070e-003	-8.742108e-001	1.857066e-002
1028228.228	8.829152e-001	3.623112e-002	-4.685814e-001	-5.197005e-003	-4.668075e-001	-5.533891e-003	-8.744715e-001	1.908211e-002
1037937.938	8.825704e-001	3.511004e-002	-4.685290e-001	-5.049542e-003	-4.664347e-001	-5.091857e-003	-8.740035e-001	1.952038e-002
1047647.648	8.833049e-001	3.401728e-002	-4.685094e-001	-4.782721e-003	-4.667247e-001	-4.962370e-003	-8.742265e-001	1.941250e-002
1057357.357	8.834265e-001	3.283198e-002	-4.687436e-001	-4.523906e-003	-4.666221e-001	-4.209100e-003	-8.742765e-001	1.976600e-002
1067067.067	8.833474e-001	3.251854e-002	-4.684126e-001	-4.432333e-003	-4.667992e-001	-4.244709e-003	-8.742529e-001	1.935997e-002
1076776.777	8.830376e-001	3.166944e-002	-4.685016e-001	-4.155622e-003	-4.667701e-001	-4.090984e-003	-8.742711e-001	2.000568e-002
1086486.486	8.830888e-001	3.061210e-002	-4.683910e-001	-3.587259e-003	-4.666646e-001	-3.800993e-003	-8.741038e-001	2.003334e-002
1096196.196	8.833511e-001	2.966048e-002	-4.687346e-001	-3.446579e-003	-4.665723e-001	-3.644675e-003	-8.739205e-001	1.970249e-002
1105905.906	8.832831e-001	2.900345e-002	-4.684597e-001	-3.420075e-003	-4.662164e-001	-3.817397e-003	-8.733437e-001	1.957718e-002
1115615.616	8.826688e-001	2.844260e-002	-4.685618e-001	-3.074015e-003	-4.665358e-001	-3.084741e-003	-8.737688e-001	2.020521e-002
1125325.325	8.829020e-001	2.732112e-002	-4.684140e-001	-2.884936e-003	-4.668142e-001	-2.808342e-003	-8.737315e-001	2.006877e-002
1135035.035	8.831260e-001	2.664407e-002	-4.687077e-001	-2.589342e-003	-4.664443e-001	-2.767553e-003	-8.735374e-001	2.022300e-002
1144744.745	8.832429e-001	2.589836e-002	-4.686205e-001	-2.157815e-003	-4.663309e-001	-2.364702e-003	-8.736336e-001	2.052493e-002
1154454.454	8.830257e-001	2.531603e-002	-4.685444e-001	-2.295361e-003	-4.666065e-001	-2.159962e-003	-8.737727e-001	2.050162e-002
1164164.164	8.832015e-001	2.418396e-002	-4.688555e-001	-1.587961e-003	-4.666183e-001	-1.675767e-003	-8.736666e-001	2.086163e-002
1173873.874	8.828781e-001	2.367475e-002	-4.686464e-001	-1.589387e-003	-4.665396e-001	-1.856873e-003	-8.735163e-001	2.090543e-002
1183583.584	8.833915e-001	2.262621e-002	-4.686713e-001	-1.143645e-003	-4.663113e-001	-1.264723e-003	-8.728985e-001	2.137817e-002
1193293.293	8.827792e-001	2.173036e-002	-4.685341e-001	-9.759475e-004	-4.661544e-001	-1.593736e-003	-8.725398e-001	2.067929e-002
1203003.003	8.829539e-001	2.121762e-002	-4.684664e-001	-4.391648e-004	-4.662585e-001	-1.088323e-003	-8.729239e-001	2.106538e-002
1212712.713	8.830090e-001	2.069776e-002	-4.684603e-001	-6.564154e-004	-4.662849e-001	-6.839303e-004	-8.730662e-001	2.146884e-002
1222422.422	8.825531e-001	1.987240e-002	-4.684556e-001	-4.788986e-004	-4.661629e-001	-8.217939e-004	-8.728486e-001	2.102675e-002
1232132.132	8.830671e-001	1.894115e-002	-4.684765e-001	-7.731053e-005	-4.663998e-001	-3.621273e-004	-8.731940e-001	2.130547e-002
1241841.842	8.829862e-001	1.851247e-002	-4.685956e-001	9.005352e-005	-4.665144e-001	-3.115580e-004	-8.731125e-001	2.127207e-002
1251551.552	8.833035e-001	1.748840e-002	-4.687913e-001	1.180266e-004	-4.663921e-001	-1.862229e-005	-8.729576e-001	2.155452e-002
1261261.261	8.827019e-001	1.687911e-002	-4.683954e-001	4.468234e-004	-4.660696e-001	5.455225e-004	-8.725740e-001	2.180308e-002
1270970.971	8.830074e-001	1.612478e-002	-4.683751e-001	4.817772e-004	-4.660781e-001	5.180643e-004	-8.728225e-001	2.151130e-002
1280680.681	8.831091e-001	1.537636e-002	-4.687392e-001	1.100049e-003	-4.664484e-001	4.708803e-004	-8.729795e-001	2.186165e-002
1290390.390	8.825245e-001	1.469859e-002	-4.686997e-001	9.898431e-004	-4.666338e-001	1.301620e-003	-8.735384e-001	2.234262e-002
1300100.100	8.832042e-001	1.410868e-002	-4.686518e-001	1.263765e-003	-4.666538e-001	1.225857e-003	-8.730628e-001	2.213308e-002
1309809.810	8.830734e-001	1.320769e-002	-4.685506e-001	1.466082e-003	-4.662559e-001	1.444514e-003	-8.725127e-001	2.218593e-002
1319519.520	8.824422e-001	1.274051e-002	-4.683572e-001	1.533346e-003	-4.667574e-001	1.530812e-003	-8.729698e-001	2.208396e-002
1329229.229	8.828481e-001	1.178144e-002	-4.684440e-001	1.821642e-003	-4.664984e-001	1.522256e-003	-8.729196e-001	2.196557e-002
1338938.939	8.831140e-001	1.181779e-002	-4.687146e-001	1.870571e-003	-4.663176e-001	2.163746e-003	-8.728032e-001	2.287614e-002
1348648.649	8.828336e-001	1.095057e-002	-4.688341e-001	2.449454e-003	-4.665899e-001	1.892063e-003	-8.727259e-001	2.206915e-002
1358358.358	8.831672e-001	1.050241e-002	-4.684799e-001	2.517973e-003	-4.662283e-001	2.326518e-003	-8.727101e-001	2.248787e-002
1368068.068	8.824735e-001	9.845054e-003	-4.683279e-001	2.536813e-003	-4.662854e-001	2.771125e-003	-8.726311e-001	2.327756e-002
1377777.778	8.828726e-001	9.163711e-003	-4.683144e-001	2.930002e-003	-4.662223e-001	2.755615e-003	-8.723020e-001	2.277286e-002
1387487.487	8.833477e-001	8.057971e-003	-4.686982e-001	3.043297e-003	-4.663681e-001	2.690713e-003	-8.726063e-001	2.239883e-002
1397197.197	8.822438e-001	7.600031e-003	-4.680425e-001	3.189208e-003	-4.664615e-001	3.122165e-003	-8.723856e-001	2.320682e-002
1406906.907	8.825721e-001	7.511961e-003	-4.683964e-001	3.237097e-003	-4.663397e-001	3.145450e-003	-8.728665e-001	2.289238e-002
1416616.617	8.829854e-001	6.540444e-003	-4.684762e-001	3.426306e-003	-4.665188e-001	3.553599e-003	-8.725786e-001	2.334683e-002
1426326.326	8.829188e-001	5.364418e-003	-4.683958e-001	4.274164e-003	-4.663349e-001	3.609027e-003	-8.722030e-001	2.319855e-002
1436036.036	8.832515e-001	5.672228e-003	-4.688287e-001	3.812415e-003	-4.666028e-001	3.631014e-003	-8.723884e-001	2.300321e-002
1445745.746	8.827649e-001	4.462720e-003	-4.686436e-001	4.650510e-003	-4.663723e-001	4.022433e-003	-8.723056e-001	2.347621e-002
1455455.455	8.829464e-001	3.822230e-003	-4.685934e-001	4.721229e-003	-4.659025e-001	4.270257e-003	-8.714316e-001	2.365928e-002
1465165.165	8.832491e-001	2.666533e-003	-4.687387e-001	4.872483e-003	-4.660609e-001	4.176931e-003	-8.719880e-001	2.299702e-002
1474874.875	8.830911e-001	2.214190e-003	-4.685004e-001	5.361742e-003	-4.663559e-001	4.404729e-003	-8.724468e-001	2.341612e-002
1484584.585	8.827374e-001	1.989535e-003	-4.682745e-001	5.051310e-003	-4.664062e-001	4.534660e-003	-8.723547e-001	2.349619e-002
1494294.294	8.826475e-001	9.837422e-004	-4.681000e-001	5.658678e-003	-4.662096e-001	4.664986e-003	-8.718610e-001	2.299793e-002
1504004.004	8.827022e-001	6.251793e-004	-4.681621e-001	5.449559e-003	-4.663953e-001	4.980182e-003	-8.721803e-001	2.348972e-002
1513713.714	8.825482e-001	2.990800e-004	-4.680852e-001	5.831164e-003	-4.662578e-001	5.222262e-003	-8.723419e-001	2.335353e-002
1523423.423	8.829298e-001	-3.535209e-004	-4.684985e-001	5.697877e-003	-4.664525e-001	5.469618e-003	-8.720577e-001	2.409283e-002
1533133.133	8.829317e-001	-7.577857e-004	-4.687699e-001	5.876301e-003	-4.660498e-001	5.653588e-003	-8.718572e-001	2.406661e-002
1542842.843	8.826726e-001	-1.888305e-003	-4.680225e-001	6.470884e-003	-4.662120e-001	5.561073e-003	-8.721195e-001	2.372688e-002
1552552.553	8.819812e-001	-2.331183e-003	-4.679959e-001	6.294019e-003	-4.663084e-001	5.920497e-003	-8.720633e-001	2.389301e-002
1562262.262	8.827180e-001	-2.549776e-003	-4.683119e-001	6.615373e-003	-4.661478e-001	6.159039e-003	-8.717184e-001	2.420537e-002
1571971.972	8.830275e-001	-4.104413e-003	-4.683076e-001	7.113625e-003	-4.665418e-001	6.042461e-003	-8.723664e-001	2.387574e-002
1581681.682	8.832080e-001	-3.832588e-003	-4.685763e-001	6.835006e-003	-4.659777e-001	6.538430e-003	-8.719939e-001	2.421114e-002
1591391.391	8.832110e-001	-4.375297e-003	-4.686979e-001	7.003138e-003	-4.662247e-001	6.320326e-003	-8.720038e-001	2.427100e-002
1601101.101	8.828218e-001	-5.111902e-003	-4.684140e-001	7.171450e-003	-4.662703e-001	6.639123e-003	-8.717810e-001	2.453073e-002
1610810.811	8.829881e-001	-5.419057e-003	-4.683798e-001	7.514297e-003	-4.661913e-001	7.396912e-003	-8.716249e-001	2.520963e-002
1620520.521	8.826165e-001	-6.397755e-003	-4.682482e-001	7.521376e-003	-4.663326e-001	7.256875e-003	-8.718159e-001	2.507700e-002
1630230.230	8.829119e-001	-6.141534e-003	-4.682312e-001	7.482104e-003	-4.664160e-001	7.367690e-003	-8.721771e-001	2.524787e-002
1639939.940	8.826381e-001	-7.151379e-003	-4.684695e-001	7.691423e-003	-4.663300e-001	7.719255e-003	-8.720514e-001	2.537548e-002
1649649.650	8.825263e-001	-7.893324e-003	-4.681289e-001	8.004352e-003	-4.663503e-001	7.620533e-003	-8.714847e-001	2.526210e-002
1659359.359	8.830935e-001	-8.267598e-003	-4.683967e-001	8.461089e-003	-4.663492e-001	7.580068e-003	-8.718041e-001	2.512812e-002
1669069.069	8.827769e-001	-8.627252e-003	-4.681784e-001	7.895653e-003	-4.659794e-001	7.970358e-003	-8.715408e-001	2.524053e-002
1678778.779	8.829125e-001	-9.436703e-003	-4.683117e-001	8.416407e-003	-4.663854e-001	8.293912e-003	-8.717534e-001	2.567211e-002
1688488.488	8.823471e-001	-9.740160e-003	-4.682528e-001	8.328586e-003	-4.660661e-001	8.689744e-003	-8.716224e-001	2.645934e-002
1698198.198	8.822289e-001	-1.021814e-002	-4.681717e-001	8.610691e-003	-4.663438e-001	8.525327e-003	-8.720430e-001	2.601404e-002
1707907.908	8.827162e-001	-1.066389e-002	-4.683734e-001	8.787936e-003	-4.659774e-001	8.932778e-003	-8.716781e-001	2.615049e-002
1717617.618	8.827016e-001	-1.137564e-002	-4.684147e-001	9.002635e-003	-4.661828e-001	8.591881e-003	-8.716849e-001	2.571408e-002
1727327.327	8.815337e-001	-1.136454e-002	-4.676294e-001	9.152732e-003	-4.660938e-001	8.889493e-003	-8.711416e-001	2.581837e-002
1737037.037	8.818978e-001	-1.218028e-002	-4.680164e-001	9.422401e-003	-4.661761e-001	8.915384e-003	-8.712156e-001	2.621427e-002
1746746.747	8.822828e-001	-1.252566e-002	-4.679494e-001	9.600046e-003	-4.659200e-001	9.355633e-003	-8.711217e-001	2.659971e-002
1756456.456	8.820699e-001	-1.307725e-002	-4.682616e-001	9.802962e-003	-4.659754e-001	9.449130e-003	-8.716726e-001	2.662177e-002
1766166.166	8.820554e-001	-1.348662e-002	-4.682355e-001	9.904079e-003	-4.661112e-001	9.703843e-003	-8.713884e-001	2.642984e-002
1775875.876	8.818495e-001	-1.411756e-002	-4.680477e-001	1.009249e-002	-4.659292e-001	9.735373e-003	-8.714681e-001	2.647357e-002
1785585.586	8.817292e-001	-1.433382e-002	-4.679814e-001	1.005011e-002	-4.659918e-001	1.012625e-002	-8.714632e-001	2.730517e-002
