!Keysight Technologies,E5061B,MY49709559,B.05.06
!Date: Fri Apr 08 00:58:14 2022
!Data & Calibration Information:
!Freq	S11:SOLT2(ON)	S21:SOLT2(ON)	S12:SOLT2(ON)	S22:SOLT2(ON)
# Hz S RI R 50
300000.000	7.558027e-001	2.038434e-001	-4.345397e-001	-4.922558e-002	-4.335987e-001	-4.965358e-002	-8.838654e-001	1.898451e-002
309709.710	7.582275e-001	1.977774e-001	-4.356516e-001	-4.783720e-002	-4.338403e-001	-4.843558e-002	-8.840421e-001	1.749609e-002
319419.419	7.589736e-001	1.909736e-001	-4.354761e-001	-4.582999e-002	-4.348672e-001	-4.627839e-002	-8.848513e-001	1.772253e-002
329129.129	7.600674e-001	1.843318e-001	-4.358495e-001	-4.400524e-002	-4.352283e-001	-4.398136e-002	-8.833582e-001	1.842421e-002
338838.839	7.611093e-001	1.793424e-001	-4.358285e-001	-4.259573e-002	-4.357732e-001	-4.280225e-002	-8.839542e-001	1.784390e-002
348548.549	7.632380e-001	1.743911e-001	-4.361387e-001	-4.147651e-002	-4.364384e-001	-4.121338e-002	-8.845548e-001	1.875756e-002
358258.258	7.636810e-001	1.692959e-001	-4.364959e-001	-4.047585e-002	-4.364755e-001	-4.027427e-002	-8.839260e-001	1.700659e-002
367967.968	7.645478e-001	1.645554e-001	-4.370677e-001	-3.919373e-002	-4.374338e-001	-3.933803e-002	-8.849869e-001	1.763857e-002
377677.678	7.660751e-001	1.599545e-001	-4.373178e-001	-3.803937e-002	-4.370258e-001	-3.728176e-002	-8.841672e-001	1.735837e-002
387387.387	7.669148e-001	1.551427e-001	-4.379900e-001	-3.636521e-002	-4.380670e-001	-3.703072e-002	-8.851248e-001	1.786704e-002
397097.097	7.670508e-001	1.510438e-001	-4.374200e-001	-3.551348e-002	-4.378291e-001	-3.562148e-002	-8.835658e-001	1.687787e-002
406806.807	7.679570e-001	1.471482e-001	-4.376011e-001	-3.477359e-002	-4.382398e-001	-3.497235e-002	-8.838535e-001	1.629228e-002
416516.517	7.681047e-001	1.424986e-001	-4.379025e-001	-3.307613e-002	-4.384572e-001	-3.396570e-002	-8.842990e-001	1.701581e-002
426226.226	7.697484e-001	1.388892e-001	-4.383664e-001	-3.234813e-002	-4.384872e-001	-3.289339e-002	-8.838389e-001	1.586320e-002
435935.936	7.695219e-001	1.354547e-001	-4.381008e-001	-3.164596e-002	-4.384975e-001	-3.136341e-002	-8.832116e-001	1.727451e-002
445645.646	7.700994e-001	1.317582e-001	-4.380447e-001	-3.080508e-002	-4.389992e-001	-3.126844e-002	-8.831842e-001	1.649678e-002
455355.355	7.707572e-001	1.293214e-001	-4.386082e-001	-2.990537e-002	-4.392580e-001	-3.026806e-002	-8.827445e-001	1.611944e-002
465065.065	7.706861e-001	1.263044e-001	-4.386081e-001	-2.921487e-002	-4.394128e-001	-2.902469e-002	-8.835944e-001	1.703664e-002
474774.775	7.714040e-001	1.231078e-001	-4.385219e-001	-2.865251e-002	-4.394319e-001	-2.845810e-002	-8.847404e-001	1.702067e-002
484484.484	7.722032e-001	1.200222e-001	-4.392251e-001	-2.754419e-002	-4.390773e-001	-2.782438e-002	-8.846905e-001	1.616839e-002
494194.194	7.716931e-001	1.168971e-001	-4.384680e-001	-2.695348e-002	-4.388918e-001	-2.692531e-002	-8.834445e-001	1.641282e-002
503903.904	7.727054e-001	1.142374e-001	-4.391234e-001	-2.585681e-002	-4.397059e-001	-2.590045e-002	-8.842591e-001	1.635437e-002
513613.614	7.730336e-001	1.115844e-001	-4.393320e-001	-2.540835e-002	-4.399938e-001	-2.555527e-002	-8.840362e-001	1.618500e-002
523323.323	7.738100e-001	1.091448e-001	-4.395974e-001	-2.495138e-002	-4.393071e-001	-2.424153e-002	-8.831575e-001	1.670246e-002
533033.033	7.739657e-001	1.070609e-001	-4.395387e-001	-2.442575e-002	-4.398199e-001	-2.390404e-002	-8.838788e-001	1.678031e-002
542742.743	7.740353e-001	1.043975e-001	-4.400554e-001	-2.374608e-002	-4.402673e-001	-2.330380e-002	-8.836187e-001	1.635171e-002
552452.452	7.737455e-001	1.017188e-001	-4.391098e-001	-2.245775e-002	-4.405384e-001	-2.339078e-002	-8.842194e-001	1.560891e-002
562162.162	7.742703e-001	9.918845e-002	-4.396163e-001	-2.196460e-002	-4.404515e-001	-2.210225e-002	-8.840745e-001	1.616927e-002
571871.872	7.746942e-001	9.823975e-002	-4.398428e-001	-2.175754e-002	-4.402294e-001	-2.185119e-002	-8.835678e-001	1.568272e-002
581581.582	7.752340e-001	9.555732e-002	-4.396903e-001	-2.094209e-002	-4.402754e-001	-2.090590e-002	-8.837327e-001	1.594150e-002
591291.291	7.753785e-001	9.344825e-002	-4.401506e-001	-2.033905e-002	-4.399351e-001	-2.057382e-002	-8.826405e-001	1.570802e-002
601001.001	7.753157e-001	9.152691e-002	-4.398801e-001	-1.975856e-002	-4.404346e-001	-1.975868e-002	-8.835832e-001	1.693188e-002
610710.711	7.754304e-001	8.875711e-002	-4.400383e-001	-1.866174e-002	-4.408845e-001	-1.910818e-002	-8.838841e-001	1.738129e-002
620420.420	7.757221e-001	8.823726e-002	-4.401838e-001	-1.857167e-002	-4.410367e-001	-1.919523e-002	-8.834995e-001	1.615014e-002
630130.130	7.760676e-001	8.600547e-002	-4.400898e-001	-1.792468e-002	-4.406562e-001	-1.828279e-002	-8.835104e-001	1.743358e-002
639839.840	7.761709e-001	8.425945e-002	-4.402516e-001	-1.777989e-002	-4.405696e-001	-1.707552e-002	-8.838539e-001	1.797840e-002
649549.550	7.762910e-001	8.233653e-002	-4.402685e-001	-1.742961e-002	-4.408985e-001	-1.734828e-002	-8.838756e-001	1.708791e-002
659259.259	7.768876e-001	8.055416e-002	-4.406334e-001	-1.685027e-002	-4.409056e-001	-1.689531e-002	-8.836061e-001	1.669262e-002
668968.969	7.766022e-001	7.904075e-002	-4.403092e-001	-1.656918e-002	-4.403670e-001	-1.637999e-002	-8.830040e-001	1.674490e-002
678678.679	7.764340e-001	7.667758e-002	-4.402609e-001	-1.565698e-002	-4.407419e-001	-1.580473e-002	-8.838475e-001	1.699560e-002
688388.388	7.768694e-001	7.535583e-002	-4.402962e-001	-1.511724e-002	-4.408911e-001	-1.541213e-002	-8.840320e-001	1.696773e-002
698098.098	7.763544e-001	7.431133e-002	-4.402540e-001	-1.491879e-002	-4.407386e-001	-1.487754e-002	-8.831695e-001	1.684427e-002
707807.808	7.769005e-001	7.313695e-002	-4.401148e-001	-1.485722e-002	-4.405279e-001	-1.454044e-002	-8.827520e-001	1.753936e-002
717517.518	7.767350e-001	7.176084e-002	-4.399236e-001	-1.444898e-002	-4.403720e-001	-1.412616e-002	-8.832213e-001	1.726941e-002
727227.227	7.775751e-001	6.975743e-002	-4.406915e-001	-1.362020e-002	-4.411938e-001	-1.297837e-002	-8.834633e-001	1.806761e-002
736936.937	7.771924e-001	6.905183e-002	-4.404933e-001	-1.395241e-002	-4.411994e-001	-1.315775e-002	-8.840900e-001	1.754276e-002
746646.647	7.772072e-001	6.757776e-002	-4.400210e-001	-1.351104e-002	-4.412064e-001	-1.300405e-002	-8.834661e-001	1.706003e-002
756356.356	7.776999e-001	6.604883e-002	-4.403984e-001	-1.269085e-002	-4.412278e-001	-1.290674e-002	-8.834746e-001	1.643362e-002
766066.066	7.778233e-001	6.453676e-002	-4.406497e-001	-1.221450e-002	-4.414163e-001	-1.209726e-002	-8.834899e-001	1.696856e-002
775775.776	7.772545e-001	6.336450e-002	-4.402698e-001	-1.217557e-002	-4.408471e-001	-1.153179e-002	-8.825944e-001	1.690069e-002
785485.485	7.777413e-001	6.181566e-002	-4.404944e-001	-1.162067e-002	-4.409530e-001	-1.139663e-002	-8.819526e-001	1.730843e-002
795195.195	7.781334e-001	6.070372e-002	-4.407567e-001	-1.109762e-002	-4.408732e-001	-1.080640e-002	-8.827627e-001	1.702169e-002
804904.905	7.774538e-001	6.005365e-002	-4.402672e-001	-1.128090e-002	-4.412528e-001	-1.019788e-002	-8.831877e-001	1.819328e-002
814614.615	7.774448e-001	5.866284e-002	-4.405098e-001	-1.096220e-002	-4.413754e-001	-1.048972e-002	-8.833458e-001	1.724783e-002
824324.324	7.777438e-001	5.660147e-002	-4.401412e-001	-9.815270e-003	-4.409315e-001	-9.585245e-003	-8.828108e-001	1.723179e-002
834034.034	7.776384e-001	5.624870e-002	-4.405384e-001	-9.782274e-003	-4.407779e-001	-9.441697e-003	-8.820561e-001	1.799096e-002
843743.744	7.786315e-001	5.567654e-002	-4.410172e-001	-9.859476e-003	-4.413393e-001	-9.192503e-003	-8.832869e-001	1.724762e-002
853453.453	7.778831e-001	5.383715e-002	-4.405079e-001	-9.135438e-003	-4.413001e-001	-8.462739e-003	-8.830861e-001	1.800763e-002
863163.163	7.781927e-001	5.222430e-002	-4.409773e-001	-8.722183e-003	-4.410601e-001	-8.379482e-003	-8.826348e-001	1.745995e-002
872872.873	7.785401e-001	5.170541e-002	-4.407143e-001	-8.591076e-003	-4.410819e-001	-7.829478e-003	-8.821705e-001	1.858589e-002
882582.583	7.780854e-001	5.097698e-002	-4.405396e-001	-8.254614e-003	-4.407547e-001	-8.055779e-003	-8.822166e-001	1.826498e-002
892292.292	7.784216e-001	5.017589e-002	-4.409732e-001	-8.047637e-003	-4.408007e-001	-6.980354e-003	-8.820606e-001	1.842761e-002
902002.002	7.785512e-001	4.839490e-002	-4.408917e-001	-7.347439e-003	-4.407776e-001	-6.953685e-003	-8.823321e-001	1.900305e-002
911711.712	7.781367e-001	4.750716e-002	-4.406795e-001	-7.532019e-003	-4.411107e-001	-7.041437e-003	-8.819597e-001	1.827944e-002
921421.421	7.786539e-001	4.617885e-002	-4.412082e-001	-7.153189e-003	-4.413740e-001	-6.758847e-003	-8.819877e-001	1.859801e-002
931131.131	7.781099e-001	4.529221e-002	-4.407136e-001	-6.506226e-003	-4.410701e-001	-6.235032e-003	-8.826547e-001	1.814781e-002
940840.841	7.779800e-001	4.505168e-002	-4.408943e-001	-6.593539e-003	-4.414286e-001	-5.729420e-003	-8.827300e-001	1.962819e-002
950550.551	7.786395e-001	4.346765e-002	-4.408148e-001	-5.755210e-003	-4.414931e-001	-5.347257e-003	-8.830106e-001	1.916098e-002
960260.260	7.783553e-001	4.304140e-002	-4.407398e-001	-5.926310e-003	-4.410933e-001	-5.495879e-003	-8.827496e-001	1.902594e-002
969969.970	7.785973e-001	4.191220e-002	-4.410307e-001	-5.438788e-003	-4.411966e-001	-5.685155e-003	-8.825125e-001	1.874821e-002
979679.680	7.788244e-001	4.106024e-002	-4.408875e-001	-5.464099e-003	-4.414209e-001	-5.153718e-003	-8.824235e-001	1.887156e-002
989389.389	7.781838e-001	4.023262e-002	-4.409408e-001	-5.194351e-003	-4.411702e-001	-4.848646e-003	-8.819981e-001	1.886080e-002
999099.099	7.787652e-001	3.928249e-002	-4.411530e-001	-4.703059e-003	-4.419454e-001	-4.605693e-003	-8.825181e-001	1.895924e-002
1008808.809	7.786076e-001	3.825698e-002	-4.406426e-001	-4.516292e-003	-4.416725e-001	-4.191484e-003	-8.822983e-001	1.988655e-002
1018518.519	7.787570e-001	3.774133e-002	-4.406067e-001	-4.764027e-003	-4.411719e-001	-3.773030e-003	-8.815784e-001	1.945292e-002
1028228.228	7.785082e-001	3.629743e-002	-4.407490e-001	-3.893410e-003	-4.412743e-001	-3.050852e-003	-8.821156e-001	1.984975e-002
1037937.938	7.788177e-001	3.630915e-002	-4.407114e-001	-3.889202e-003	-4.413602e-001	-3.800600e-003	-8.820943e-001	1.949579e-002
1047647.648	7.792113e-001	3.500911e-002	-4.407726e-001	-3.853307e-003	-4.414007e-001	-3.409517e-003	-8.825437e-001	1.911214e-002
1057357.357	7.796039e-001	3.423554e-002	-4.411864e-001	-3.179627e-003	-4.415168e-001	-2.875922e-003	-8.825633e-001	2.024170e-002
1067067.067	7.786688e-001	3.310150e-002	-4.405020e-001	-2.790073e-003	-4.409025e-001	-2.742155e-003	-8.818002e-001	1.984922e-002
1076776.777	7.788944e-001	3.278558e-002	-4.407602e-001	-2.935855e-003	-4.408663e-001	-2.474423e-003	-8.815577e-001	1.989387e-002
1086486.486	7.788690e-001	3.173186e-002	-4.409054e-001	-2.699301e-003	-4.409523e-001	-2.208749e-003	-8.820660e-001	1.978617e-002
1096196.196	7.795543e-001	3.057463e-002	-4.414049e-001	-2.294753e-003	-4.409807e-001	-2.218258e-003	-8.822247e-001	2.044300e-002
1105905.906	7.788063e-001	3.061732e-002	-4.407154e-001	-2.548361e-003	-4.411132e-001	-1.754278e-003	-8.822540e-001	2.028006e-002
1115615.616	7.788539e-001	2.990929e-002	-4.408513e-001	-2.127783e-003	-4.409709e-001	-1.629560e-003	-8.820191e-001	2.026035e-002
1125325.325	7.789926e-001	2.858374e-002	-4.407197e-001	-1.650101e-003	-4.413376e-001	-1.317898e-003	-8.814931e-001	2.009247e-002
1135035.035	7.791432e-001	2.856915e-002	-4.408239e-001	-1.860331e-003	-4.411707e-001	-5.519428e-004	-8.806868e-001	2.078848e-002
1144744.745	7.789012e-001	2.780474e-002	-4.407893e-001	-1.065374e-003	-4.408434e-001	-8.290050e-004	-8.808302e-001	2.119590e-002
1154454.454	7.788765e-001	2.658870e-002	-4.409868e-001	-9.725329e-004	-4.411115e-001	-8.784823e-004	-8.815423e-001	2.056521e-002
1164164.164	7.791530e-001	2.616052e-002	-4.408462e-001	-9.037863e-004	-4.410545e-001	-2.357219e-004	-8.811724e-001	2.091846e-002
1173873.874	7.788822e-001	2.525606e-002	-4.410907e-001	-9.563155e-004	-4.412397e-001	-2.215785e-004	-8.808620e-001	2.107348e-002
1183583.584	7.792054e-001	2.426586e-002	-4.410533e-001	-2.298540e-004	-4.410490e-001	5.040196e-004	-8.808718e-001	2.149649e-002
1193293.293	7.792929e-001	2.370240e-002	-4.412442e-001	7.044983e-005	-4.411403e-001	2.941815e-004	-8.813394e-001	2.148396e-002
1203003.003	7.787572e-001	2.291085e-002	-4.414705e-001	-6.052155e-005	-4.413179e-001	3.347152e-004	-8.816871e-001	2.026326e-002
1212712.713	7.790511e-001	2.242603e-002	-4.411588e-001	3.374707e-004	-4.414505e-001	7.514743e-004	-8.819275e-001	2.049658e-002
1222422.422	7.792987e-001	2.175022e-002	-4.409066e-001	6.089293e-004	-4.409587e-001	1.034740e-003	-8.806672e-001	2.109529e-002
1232132.132	7.791980e-001	2.168556e-002	-4.412665e-001	5.346790e-004	-4.410561e-001	1.269530e-003	-8.813696e-001	2.129597e-002
1241841.842	7.788881e-001	2.086840e-002	-4.412159e-001	9.983923e-004	-4.411459e-001	1.533195e-003	-8.817610e-001	2.107635e-002
1251551.552	7.789076e-001	1.950616e-002	-4.411521e-001	6.058916e-004	-4.403063e-001	1.942205e-003	-8.809637e-001	2.170800e-002
1261261.261	7.789788e-001	1.955547e-002	-4.408530e-001	1.063014e-003	-4.407583e-001	1.221981e-003	-8.814115e-001	2.165344e-002
1270970.971	7.792874e-001	1.931963e-002	-4.413108e-001	8.417996e-004	-4.406226e-001	2.204196e-003	-8.804628e-001	2.231231e-002
1280680.681	7.791962e-001	1.829794e-002	-4.414958e-001	1.089770e-003	-4.413163e-001	2.589702e-003	-8.818661e-001	2.248320e-002
1290390.390	7.792274e-001	1.784455e-002	-4.411187e-001	1.393164e-003	-4.416881e-001	2.350924e-003	-8.816417e-001	2.153927e-002
1300100.100	7.788002e-001	1.684482e-002	-4.411239e-001	1.917244e-003	-4.406431e-001	2.604604e-003	-8.801921e-001	2.204103e-002
1309809.810	7.794858e-001	1.679546e-002	-4.412679e-001	1.570035e-003	-4.409177e-001	2.786044e-003	-8.817438e-001	2.247683e-002
1319519.520	7.784724e-001	1.606365e-002	-4.408396e-001	2.259579e-003	-4.404264e-001	3.385672e-003	-8.806375e-001	2.247714e-002
1329229.229	7.797952e-001	1.530234e-002	-4.415792e-001	2.446643e-003	-4.408453e-001	2.965678e-003	-8.803913e-001	2.164351e-002
1338938.939	7.794452e-001	1.483284e-002	-4.411961e-001	2.537457e-003	-4.406184e-001	3.479038e-003	-8.806824e-001	2.267409e-002
1348648.649	7.789267e-001	1.415634e-002	-4.411271e-001	2.926193e-003	-4.408558e-001	3.971636e-003	-8.810083e-001	2.235671e-002
1358358.358	7.790237e-001	1.324607e-002	-4.411938e-001	3.049426e-003	-4.409967e-001	3.873480e-003	-8.806025e-001	2.315156e-002
1368068.068	7.789638e-001	1.349062e-002	-4.412694e-001	3.154109e-003	-4.406432e-001	3.777086e-003	-8.807803e-001	2.259835e-002
1377777.778	7.791626e-001	1.255837e-002	-4.412680e-001	3.483967e-003	-4.404051e-001	4.201811e-003	-8.798047e-001	2.311072e-002
1387487.487	7.798018e-001	1.164811e-002	-4.412239e-001	3.435564e-003	-4.408091e-001	3.971213e-003	-8.807758e-001	2.277283e-002
1397197.197	7.794909e-001	1.056562e-002	-4.412908e-001	4.233301e-003	-4.406525e-001	4.308775e-003	-8.808032e-001	2.371411e-002
1406906.907	7.793155e-001	1.039591e-002	-4.412468e-001	3.898331e-003	-4.409472e-001	4.396974e-003	-8.809408e-001	2.275303e-002
1416616.617	7.790000e-001	9.927967e-003	-4.412266e-001	3.937660e-003	-4.405635e-001	5.044909e-003	-8.804504e-001	2.342814e-002
1426326.326	7.787497e-001	9.653048e-003	-4.408389e-001	4.281028e-003	-4.408516e-001	4.442418e-003	-8.807914e-001	2.237324e-002
1436036.036	7.784789e-001	8.772107e-003	-4.408656e-001	5.027105e-003	-4.408866e-001	4.918062e-003	-8.808805e-001	2.279855e-002
1445745.746	7.791517e-001	8.350514e-003	-4.409603e-001	4.892997e-003	-4.409560e-001	5.282102e-003	-8.810344e-001	2.316965e-002
1455455.455	7.795198e-001	7.735008e-003	-4.413504e-001	5.103237e-003	-4.406249e-001	5.788170e-003	-8.799198e-001	2.401978e-002
1465165.165	7.793864e-001	7.083101e-003	-4.410720e-001	5.121054e-003	-4.408000e-001	5.022389e-003	-8.798460e-001	2.288680e-002
1474874.875	7.790099e-001	6.810419e-003	-4.410903e-001	5.223106e-003	-4.410571e-001	5.923692e-003	-8.809310e-001	2.311850e-002
1484584.585	7.788373e-001	6.193126e-003	-4.410996e-001	5.417649e-003	-4.404729e-001	6.043329e-003	-8.799427e-001	2.388010e-002
1494294.294	7.792056e-001	6.023175e-003	-4.406408e-001	5.493947e-003	-4.407337e-001	6.298211e-003	-8.803189e-001	2.371374e-002
1504004.004	7.785524e-001	5.671061e-003	-4.405946e-001	5.742344e-003	-4.403152e-001	6.145779e-003	-8.800731e-001	2.354447e-002
1513713.714	7.791754e-001	4.954544e-003	-4.411851e-001	5.972711e-003	-4.403989e-001	6.610452e-003	-8.800297e-001	2.443882e-002
1523423.423	7.792225e-001	4.355015e-003	-4.410307e-001	6.147606e-003	-4.406111e-001	7.067219e-003	-8.801781e-001	2.442508e-002
1533133.133	7.792568e-001	3.727925e-003	-4.406056e-001	6.085875e-003	-4.408366e-001	6.482140e-003	-8.803138e-001	2.415695e-002
1542842.843	7.789313e-001	3.443290e-003	-4.408881e-001	6.441589e-003	-4.405727e-001	7.362196e-003	-8.805359e-001	2.483013e-002
1552552.553	7.793561e-001	3.047719e-003	-4.412597e-001	6.270134e-003	-4.404932e-001	7.132272e-003	-8.800924e-001	2.517343e-002
1562262.262	7.792455e-001	2.691136e-003	-4.409992e-001	6.668794e-003	-4.404344e-001	7.132258e-003	-8.794928e-001	2.439102e-002
1571971.972	7.792553e-001	1.982108e-003	-4.408133e-001	6.778856e-003	-4.402477e-001	7.267574e-003	-8.789589e-001	2.402997e-002
1581681.682	7.792270e-001	1.043962e-003	-4.413140e-001	7.360154e-003	-4.404913e-001	7.683874e-003	-8.797836e-001	2.517184e-002
1591391.391	7.786770e-001	1.374300e-003	-4.409203e-001	6.914519e-003	-4.403861e-001	7.562753e-003	-8.798504e-001	2.484933e-002
1601101.101	7.782332e-001	6.225379e-004	-4.404926e-001	7.042928e-003	-4.407172e-001	8.229805e-003	-8.799370e-001	2.467779e-002
1610810.811	7.792135e-001	-1.011000e-003	-4.411705e-001	7.882441e-003	-4.406558e-001	8.344792e-003	-8.796570e-001	2.528180e-002
1620520.521	7.792696e-001	-3.679258e-004	-4.411821e-001	7.825709e-003	-4.405756e-001	8.331713e-003	-8.796205e-001	2.545599e-002
1630230.230	7.785149e-001	-7.055433e-004	-4.409173e-001	7.839530e-003	-4.408645e-001	8.472384e-003	-8.806488e-001	2.537484e-002
1639939.940	7.789673e-001	-1.296382e-003	-4.408400e-001	7.875294e-003	-4.405879e-001	8.621544e-003	-8.801255e-001	2.580228e-002
1649649.650	7.789446e-001	-2.172399e-003	-4.406249e-001	8.363710e-003	-4.401905e-001	8.612592e-003	-8.794733e-001	2.510990e-002
1659359.359	7.794316e-001	-2.522796e-003	-4.409761e-001	8.330636e-003	-4.407997e-001	8.770745e-003	-8.803771e-001	2.537512e-002
1669069.069	7.790844e-001	-2.792647e-003	-4.410189e-001	8.342652e-003	-4.405935e-001	9.037587e-003	-8.800413e-001	2.578804e-002
1678778.779	7.787923e-001	-3.389017e-003	-4.408607e-001	8.585271e-003	-4.404041e-001	9.244709e-003	-8.799879e-001	2.571307e-002
1688488.488	7.784833e-001	-3.279504e-003	-4.407376e-001	8.586984e-003	-4.403809e-001	9.502042e-003	-8.801772e-001	2.559194e-002
1698198.198	7.790814e-001	-3.480474e-003	-4.407584e-001	8.866164e-003	-4.401580e-001	9.599655e-003	-8.795512e-001	2.602205e-002
1707907.908	7.790473e-001	-4.431042e-003	-4.408968e-001	8.935597e-003	-4.407717e-001	1.025937e-002	-8.801069e-001	2.649408e-002
1717617.618	7.790998e-001	-4.993754e-003	-4.409563e-001	9.255167e-003	-4.405524e-001	1.015543e-002	-8.808153e-001	2.614546e-002
1727327.327	7.786539e-001	-5.806456e-003	-4.406937e-001	9.389074e-003	-4.406716e-001	1.001052e-002	-8.800151e-001	2.602179e-002
1737037.037	7.787457e-001	-5.900722e-003	-4.408578e-001	9.301297e-003	-4.399331e-001	9.409010e-003	-8.790830e-001	2.576644e-002
1746746.747	7.788436e-001	-6.106390e-003	-4.409166e-001	9.829669e-003	-4.405305e-001	1.057233e-002	-8.800068e-001	2.623632e-002
1756456.456	7.789130e-001	-6.796812e-003	-4.408839e-001	9.804298e-003	-4.410063e-001	1.080612e-002	-8.792738e-001	2.675251e-002
1766166.166	7.793921e-001	-8.006787e-003	-4.408794e-001	1.027176e-002	-4.405457e-001	1.094864e-002	-8.792411e-001	2.674117e-002
1775875.876	7.792018e-001	-7.439349e-003	-4.409724e-001	9.767973e-003	-4.405032e-001	1.113275e-002	-8.797844e-001	2.715710e-002
1785585.586	7.785748e-001	-8.436854e-003	-4.409508e-001	1.038050e-002	-4.409443e-001	1.130687e-002	-8.797780e-001	2.743498e-002
