!Keysight Technologies,E5061B,MY49709559,B.05.06
!Date: Thu Apr 07 18:57:13 2022
!Data & Calibration Information:
!Freq	S11:SOLT2(ON)	S21:SOLT2(ON)	S12:SOLT2(ON)	S22:SOLT2(ON)
# Hz S RI R 50
300000.000	1.016516e+000	-5.855311e-003	8.018677e-006	-2.554689e-005	3.109500e-005	3.662079e-005	-6.220583e-001	7.621046e-001
309709.710	1.013430e+000	-6.433441e-003	-2.475873e-006	-1.892413e-005	3.075056e-005	-1.171673e-005	-6.005644e-001	7.811262e-001
319419.419	1.011633e+000	-5.666978e-003	-2.640763e-005	1.896806e-005	-9.441889e-006	-1.327307e-006	-5.792466e-001	7.968012e-001
329129.129	1.010418e+000	-5.529051e-003	1.397979e-005	-5.636593e-006	-6.791764e-006	-1.367079e-005	-5.562743e-001	8.135077e-001
338838.839	1.009719e+000	-6.225405e-003	-1.365445e-005	-9.661780e-006	-5.235573e-005	2.247968e-005	-5.344012e-001	8.279236e-001
348548.549	1.008875e+000	-5.896104e-003	4.930633e-006	-1.374319e-005	6.809407e-006	-2.692209e-005	-5.113653e-001	8.424049e-001
358258.258	1.009028e+000	-6.091800e-003	8.790776e-006	9.240880e-006	-8.165500e-006	4.040970e-005	-4.884630e-001	8.555202e-001
367967.968	1.008535e+000	-6.290358e-003	2.749152e-005	3.508459e-005	1.585586e-005	3.185680e-005	-4.659858e-001	8.677124e-001
377677.678	1.009403e+000	-5.815731e-003	-2.939547e-005	-4.325321e-005	-2.019743e-005	-3.636472e-005	-4.430771e-001	8.794647e-001
387387.387	1.008111e+000	-6.984187e-003	-1.597779e-005	-3.627827e-005	-3.124388e-005	-3.092021e-006	-4.207967e-001	8.913041e-001
397097.097	1.007062e+000	-5.948195e-003	-3.414220e-005	2.303046e-005	-5.241949e-005	1.747031e-006	-3.970585e-001	9.014426e-001
406806.807	1.007230e+000	-5.891092e-003	-8.571443e-006	-1.526521e-005	3.342794e-005	3.282486e-005	-3.745383e-001	9.113318e-001
416516.517	1.007193e+000	-5.615948e-003	-8.718719e-006	-6.817365e-005	1.886457e-005	5.012176e-005	-3.503969e-001	9.199271e-001
426226.226	1.006736e+000	-6.556476e-003	-2.049593e-006	4.525113e-006	6.138950e-006	1.859074e-005	-3.274158e-001	9.284238e-001
435935.936	1.006601e+000	-6.253558e-003	2.135002e-007	-5.839110e-005	7.038252e-006	3.542033e-005	-3.042257e-001	9.366210e-001
445645.646	1.006164e+000	-6.401422e-003	2.809260e-005	2.956675e-005	-1.680012e-005	-1.243705e-005	-2.807416e-001	9.432578e-001
455355.355	1.006207e+000	-6.004999e-003	3.610563e-006	2.420348e-006	1.363493e-005	-5.599294e-006	-2.563772e-001	9.500242e-001
465065.065	1.006323e+000	-6.177981e-003	-1.062077e-005	-5.401324e-005	1.768390e-005	3.357417e-006	-2.336431e-001	9.555888e-001
474774.775	1.005508e+000	-6.079512e-003	1.082847e-006	2.841963e-005	-1.529468e-005	5.235120e-006	-2.105794e-001	9.607671e-001
484484.484	1.006256e+000	-5.591387e-003	9.160943e-007	-2.878605e-005	5.907714e-006	-1.161556e-005	-1.874025e-001	9.650850e-001
494194.194	1.005870e+000	-6.004806e-003	-3.379540e-005	-3.917197e-005	-1.226964e-005	1.563755e-005	-1.637808e-001	9.688208e-001
503903.904	1.006061e+000	-6.443260e-003	-3.690363e-006	2.661644e-005	-4.105147e-005	-1.100041e-005	-1.410616e-001	9.725149e-001
513613.614	1.005998e+000	-6.168948e-003	5.414510e-006	3.288980e-005	1.017534e-005	-9.509881e-006	-1.179970e-001	9.751051e-001
523323.323	1.005814e+000	-5.785332e-003	-1.652267e-005	-8.349345e-006	-1.080312e-005	-1.857147e-005	-9.455629e-002	9.780274e-001
533033.033	1.006119e+000	-6.495190e-003	2.269165e-006	1.165313e-005	2.835911e-005	-3.824249e-006	-7.193178e-002	9.795783e-001
542742.743	1.005668e+000	-6.247809e-003	2.829901e-007	-3.089749e-005	-1.697459e-005	7.108154e-007	-4.960502e-002	9.800754e-001
552452.452	1.005831e+000	-6.176024e-003	8.225136e-006	-3.232811e-005	-2.610053e-005	-7.666521e-006	-2.704267e-002	9.808249e-001
562162.162	1.005280e+000	-5.813000e-003	-9.397064e-006	9.627540e-006	-1.621567e-005	-8.296691e-007	-4.641848e-003	9.800433e-001
571871.872	1.005521e+000	-5.847287e-003	-2.539052e-005	-2.773139e-005	-6.162372e-006	-1.753165e-005	1.635562e-002	9.804507e-001
581581.582	1.005063e+000	-5.952695e-003	-5.869599e-006	1.018653e-005	-3.411776e-005	2.550737e-005	3.834413e-002	9.793789e-001
591291.291	1.005233e+000	-6.194632e-003	3.643398e-005	2.767181e-005	-2.281597e-005	-4.192330e-005	5.965521e-002	9.777948e-001
601001.001	1.004902e+000	-6.078820e-003	-1.441809e-005	3.057765e-005	-1.827755e-005	2.035737e-005	8.076580e-002	9.760865e-001
610710.711	1.005169e+000	-6.425808e-003	-1.499498e-005	7.951323e-006	-9.220693e-007	-2.938280e-006	1.012159e-001	9.734556e-001
620420.420	1.004659e+000	-6.164856e-003	8.841613e-006	-2.318789e-005	-6.724874e-006	-1.647925e-005	1.227574e-001	9.705877e-001
630130.130	1.004739e+000	-6.076309e-003	4.497333e-005	-3.847838e-005	4.784605e-006	7.372274e-006	1.434115e-001	9.671047e-001
639839.840	1.004973e+000	-6.243231e-003	2.349836e-005	3.236357e-005	3.297144e-005	-1.753204e-005	1.635404e-001	9.635057e-001
649549.550	1.004689e+000	-5.879305e-003	2.507293e-005	8.402416e-006	-5.852632e-005	3.402187e-005	1.833834e-001	9.600061e-001
659259.259	1.004962e+000	-6.490240e-003	4.789024e-006	4.586585e-005	-8.704782e-006	1.494548e-005	2.026797e-001	9.557987e-001
668968.969	1.004685e+000	-6.024124e-003	-2.117150e-005	-1.328773e-005	1.427007e-005	-2.600709e-005	2.223407e-001	9.508441e-001
678678.679	1.004993e+000	-5.331200e-003	4.091781e-005	9.207836e-006	-1.515596e-005	1.587778e-005	2.412577e-001	9.450137e-001
688388.388	1.005072e+000	-6.028937e-003	-1.898732e-005	-3.903183e-006	3.605085e-006	2.273312e-006	2.607246e-001	9.401027e-001
698098.098	1.004702e+000	-6.827978e-003	6.891564e-006	-1.298898e-005	-3.505401e-005	-2.297120e-005	2.789904e-001	9.348915e-001
707807.808	1.004250e+000	-6.481818e-003	-1.060514e-005	3.389282e-005	2.789812e-006	-8.195781e-006	2.967813e-001	9.283602e-001
717517.518	1.004461e+000	-6.756956e-003	-2.298761e-006	-9.427144e-006	-3.237641e-005	-2.682737e-005	3.148918e-001	9.224093e-001
727227.227	1.004547e+000	-6.078943e-003	2.240395e-005	3.770216e-006	3.979861e-005	1.865257e-005	3.329990e-001	9.150222e-001
736936.937	1.003597e+000	-5.676524e-003	1.856478e-005	2.103008e-005	-3.935180e-005	-2.834393e-005	3.497916e-001	9.084583e-001
746646.647	1.003854e+000	-6.468995e-003	2.498379e-005	3.896404e-005	-3.165617e-006	2.886993e-006	3.674973e-001	9.013518e-001
756356.356	1.004112e+000	-5.962120e-003	5.357056e-006	2.978836e-005	1.995724e-005	-4.221659e-005	3.835766e-001	8.936172e-001
766066.066	1.004639e+000	-6.125426e-003	2.438826e-005	4.882430e-005	-1.081350e-005	-3.617702e-005	3.995673e-001	8.858387e-001
775775.776	1.004379e+000	-6.307095e-003	-3.014220e-006	1.438452e-005	1.766655e-005	1.630268e-005	4.157466e-001	8.786396e-001
785485.485	1.004646e+000	-5.876285e-003	-2.820481e-005	2.337504e-007	-1.078435e-005	-2.618808e-005	4.322313e-001	8.697959e-001
795195.195	1.004516e+000	-6.103485e-003	-7.408282e-006	1.691925e-006	2.552392e-006	-6.919500e-006	4.475778e-001	8.605997e-001
804904.905	1.004024e+000	-5.893183e-003	-4.452958e-006	2.941923e-005	-2.340732e-006	1.918722e-005	4.624821e-001	8.524946e-001
814614.615	1.003733e+000	-6.294310e-003	2.744650e-005	4.408912e-005	1.516491e-005	-6.083609e-008	4.774002e-001	8.438760e-001
824324.324	1.004441e+000	-6.205452e-003	5.825720e-005	8.429745e-006	1.232470e-005	1.265090e-005	4.928010e-001	8.348296e-001
834034.034	1.004465e+000	-5.767134e-003	1.832097e-005	-3.245724e-005	-3.177896e-005	-1.947069e-005	5.067805e-001	8.259590e-001
843743.744	1.004545e+000	-6.345083e-003	-2.200178e-005	2.379356e-005	-2.695470e-005	-5.771025e-005	5.208893e-001	8.170562e-001
853453.453	1.004116e+000	-6.038921e-003	2.788365e-005	-1.444146e-005	8.405228e-006	1.566327e-005	5.347425e-001	8.070862e-001
863163.163	1.004006e+000	-5.444876e-003	2.576924e-005	1.145259e-005	-1.460274e-006	4.180821e-006	5.479220e-001	7.974330e-001
872872.873	1.003894e+000	-5.739875e-003	-2.039060e-005	4.230791e-005	2.051187e-005	-3.345253e-007	5.613890e-001	7.875100e-001
882582.583	1.004165e+000	-6.094286e-003	9.741501e-006	-5.618049e-006	5.248160e-005	-4.457836e-005	5.740981e-001	7.776311e-001
892292.292	1.004007e+000	-6.109496e-003	-1.249565e-005	1.877964e-005	1.914217e-006	-1.214966e-005	5.875751e-001	7.672837e-001
902002.002	1.003439e+000	-6.383999e-003	9.748050e-006	8.001512e-005	-3.204033e-007	9.856646e-006	5.997313e-001	7.572021e-001
911711.712	1.004186e+000	-5.807089e-003	9.012632e-006	-2.409686e-005	-8.069248e-006	3.253222e-005	6.115535e-001	7.474884e-001
921421.421	1.003535e+000	-5.575345e-003	2.227684e-006	1.807486e-005	-2.271891e-005	-1.551613e-006	6.237786e-001	7.366039e-001
931131.131	1.003106e+000	-6.851126e-003	3.585233e-005	1.012914e-005	8.382083e-006	-1.331735e-005	6.354405e-001	7.268487e-001
940840.841	1.003814e+000	-6.456590e-003	1.066351e-005	2.369998e-005	-1.044675e-005	-4.891826e-006	6.455448e-001	7.157425e-001
950550.551	1.002882e+000	-6.231285e-003	4.914940e-005	-3.219104e-005	-1.512712e-005	7.154693e-006	6.576044e-001	7.049614e-001
960260.260	1.003333e+000	-5.213086e-003	1.329896e-005	-1.465909e-005	-1.643124e-005	-2.226467e-005	6.683825e-001	6.941573e-001
969969.970	1.003688e+000	-5.774341e-003	1.108539e-005	3.360955e-005	-2.360150e-006	2.659165e-005	6.783863e-001	6.837579e-001
979679.680	1.002933e+000	-6.064587e-003	-8.164704e-006	-7.304878e-006	-2.745778e-005	3.869619e-005	6.889652e-001	6.728314e-001
989389.389	1.003020e+000	-5.277146e-003	-5.422076e-005	3.052952e-005	8.840508e-006	8.229558e-006	6.996644e-001	6.617131e-001
999099.099	1.003295e+000	-5.873929e-003	-1.140606e-005	-1.778841e-005	-1.846205e-005	-5.577101e-006	7.093490e-001	6.504941e-001
1008808.809	1.002496e+000	-6.068197e-003	2.620649e-005	-1.790809e-005	-5.919266e-005	1.813818e-005	7.186579e-001	6.401050e-001
1018518.519	1.003271e+000	-6.154572e-003	1.969535e-005	1.134165e-005	3.241935e-005	3.899117e-005	7.278281e-001	6.286593e-001
1028228.228	1.003025e+000	-5.542804e-003	2.415683e-005	1.273794e-005	2.969948e-006	1.562111e-005	7.366368e-001	6.180726e-001
1037937.938	1.002827e+000	-5.204562e-003	3.411985e-007	4.150130e-005	-2.293667e-005	2.063598e-008	7.461266e-001	6.065292e-001
1047647.648	1.003551e+000	-6.494407e-003	2.553524e-005	9.260164e-007	-1.788709e-005	4.058372e-005	7.541713e-001	5.957512e-001
1057357.357	1.003410e+000	-5.728234e-003	5.194799e-006	9.540434e-006	-7.292559e-006	-1.184810e-006	7.616992e-001	5.838731e-001
1067067.067	1.003494e+000	-6.151567e-003	3.248181e-005	-4.510444e-006	3.503124e-005	6.047266e-006	7.708971e-001	5.730890e-001
1076776.777	1.002584e+000	-5.971972e-003	-1.175413e-006	5.698752e-005	-2.185587e-005	3.711397e-005	7.784296e-001	5.616746e-001
1086486.486	1.003069e+000	-5.208308e-003	3.290858e-006	3.376911e-005	-4.178911e-005	8.421688e-006	7.859943e-001	5.506304e-001
1096196.196	1.003049e+000	-6.093135e-003	-1.573127e-005	4.492427e-005	-1.022080e-005	-3.513997e-005	7.937607e-001	5.391417e-001
1105905.906	1.003180e+000	-5.761583e-003	1.998167e-005	7.406379e-006	9.454948e-006	-2.749284e-005	8.007503e-001	5.281752e-001
1115615.616	1.002950e+000	-5.797544e-003	-4.826640e-005	-2.133489e-005	-2.679893e-005	-4.466275e-005	8.076643e-001	5.164137e-001
1125325.325	1.002552e+000	-5.359480e-003	-3.020128e-005	-2.810214e-005	1.331651e-005	-2.798612e-005	8.146996e-001	5.052749e-001
1135035.035	1.003004e+000	-5.567898e-003	4.429734e-006	2.827826e-005	-2.197644e-005	-2.106614e-005	8.213487e-001	4.941478e-001
1144744.745	1.002920e+000	-5.247366e-003	3.294804e-005	2.354523e-005	8.629308e-006	8.425504e-006	8.277816e-001	4.826430e-001
1154454.454	1.002884e+000	-5.369053e-003	-2.672282e-005	-4.716894e-006	4.307057e-005	-1.718689e-005	8.346370e-001	4.715254e-001
1164164.164	1.002877e+000	-5.795597e-003	1.450505e-005	1.721020e-005	-9.670294e-006	-5.138637e-005	8.396264e-001	4.600541e-001
1173873.874	1.002598e+000	-5.875818e-003	3.767135e-005	8.041756e-006	-1.071030e-006	-4.945869e-006	8.462673e-001	4.485383e-001
1183583.584	1.002367e+000	-6.003565e-003	-1.833289e-006	1.720446e-005	-3.559987e-005	7.100357e-006	8.512670e-001	4.365284e-001
1193293.293	1.002793e+000	-5.451695e-003	2.317090e-005	-7.123191e-005	1.570542e-005	3.310919e-005	8.571605e-001	4.257958e-001
1203003.003	1.002890e+000	-5.307569e-003	4.919531e-005	-2.145539e-005	-2.574441e-005	-5.946748e-006	8.620937e-001	4.143355e-001
1212712.713	1.002558e+000	-5.345947e-003	3.123448e-005	2.639233e-005	-6.602204e-006	-1.923639e-005	8.670445e-001	4.041062e-001
1222422.422	1.001944e+000	-5.014573e-003	-5.832289e-007	-4.811268e-005	-1.070217e-005	8.725020e-006	8.723151e-001	3.924080e-001
1232132.132	1.002843e+000	-5.176825e-003	2.301454e-006	4.871840e-006	-2.214256e-005	-3.193455e-005	8.768534e-001	3.809352e-001
1241841.842	1.002515e+000	-5.145382e-003	-1.241910e-005	-2.333103e-005	3.667010e-006	-1.640444e-005	8.817947e-001	3.693409e-001
1251551.552	1.002479e+000	-5.916953e-003	1.876199e-005	-2.128065e-005	5.030857e-007	-1.787586e-005	8.857406e-001	3.584362e-001
1261261.261	1.002701e+000	-5.236019e-003	-7.284740e-007	1.002162e-005	2.682030e-005	-3.095309e-005	8.903696e-001	3.467526e-001
1270970.971	1.003109e+000	-5.522743e-003	2.404224e-005	-1.191683e-005	-2.121620e-005	7.531892e-006	8.939055e-001	3.356354e-001
1280680.681	1.003076e+000	-5.749697e-003	-1.210568e-005	9.093854e-006	-9.550979e-006	-2.645514e-005	8.979687e-001	3.252867e-001
1290390.390	1.002886e+000	-6.028758e-003	-9.910191e-006	-4.041989e-005	-1.220236e-005	2.811600e-005	9.012636e-001	3.142191e-001
1300100.100	1.002970e+000	-5.939729e-003	-3.687471e-005	-2.421046e-005	-3.081728e-005	5.716858e-005	9.047317e-001	3.032402e-001
1309809.810	1.003188e+000	-5.580413e-003	-4.244552e-005	-6.240930e-005	1.363687e-005	-1.514890e-005	9.085189e-001	2.920864e-001
1319519.520	1.002839e+000	-6.098850e-003	4.372010e-005	2.885489e-005	-1.733992e-005	-9.590608e-006	9.120929e-001	2.814210e-001
1329229.229	1.002432e+000	-5.395393e-003	-1.833584e-005	4.245579e-005	-9.507161e-006	7.582672e-006	9.154228e-001	2.705588e-001
1338938.939	1.002908e+000	-5.804250e-003	1.074438e-005	2.343696e-005	-9.108964e-006	-1.534419e-005	9.179804e-001	2.588733e-001
1348648.649	1.002853e+000	-6.238025e-003	-1.144103e-005	1.504871e-005	2.824754e-005	3.503970e-005	9.201572e-001	2.490573e-001
1358358.358	1.002814e+000	-6.233242e-003	1.714529e-005	-1.873923e-005	1.401672e-005	-3.967610e-005	9.233364e-001	2.382269e-001
1368068.068	1.002600e+000	-5.560437e-003	-3.193667e-005	9.124288e-006	2.457108e-005	1.358215e-005	9.260891e-001	2.279217e-001
1377777.778	1.002360e+000	-5.982712e-003	1.942095e-007	-1.433953e-005	1.586251e-005	-1.117839e-005	9.279923e-001	2.163773e-001
1387487.487	1.002530e+000	-5.874170e-003	1.086782e-005	1.965504e-005	-6.530748e-005	3.890846e-006	9.301248e-001	2.057160e-001
1397197.197	1.002685e+000	-5.738366e-003	-5.598634e-005	-4.972040e-005	-1.108929e-005	-9.442445e-006	9.329370e-001	1.953138e-001
1406906.907	1.002658e+000	-5.066414e-003	-2.897692e-005	-6.911856e-005	1.312144e-005	8.180283e-006	9.342183e-001	1.847361e-001
1416616.617	1.002786e+000	-5.653786e-003	-2.318877e-005	-1.581069e-005	5.330600e-005	-4.700848e-006	9.359373e-001	1.746436e-001
1426326.326	1.002856e+000	-5.634414e-003	7.988046e-006	3.198610e-006	4.067329e-005	3.927167e-005	9.378410e-001	1.642110e-001
1436036.036	1.002413e+000	-5.850372e-003	1.905109e-006	-5.126681e-005	-5.049805e-005	9.962949e-006	9.392182e-001	1.537325e-001
1445745.746	1.002759e+000	-5.405628e-003	-4.963119e-005	-5.061372e-005	8.217881e-006	-9.856299e-006	9.404878e-001	1.437911e-001
1455455.455	1.002541e+000	-5.228833e-003	-2.447347e-005	3.944494e-006	3.352450e-005	-2.339700e-005	9.419757e-001	1.338111e-001
1465165.165	1.002260e+000	-6.071935e-003	-4.523623e-005	-1.845031e-006	-4.299719e-006	5.135680e-005	9.436056e-001	1.233869e-001
1474874.875	1.002854e+000	-6.491104e-003	-1.697494e-005	-3.243563e-005	3.638410e-006	-2.006253e-005	9.440975e-001	1.135080e-001
1484584.585	1.002641e+000	-5.281957e-003	3.091226e-005	-5.122075e-005	3.228269e-005	1.233468e-007	9.457036e-001	1.032463e-001
1494294.294	1.003058e+000	-5.461247e-003	2.456400e-005	1.182342e-005	3.336947e-005	4.575749e-005	9.465364e-001	9.302729e-002
1504004.004	1.002320e+000	-5.739038e-003	3.690309e-005	5.156326e-006	-9.559244e-006	1.510698e-005	9.476512e-001	8.308029e-002
1513713.714	1.001889e+000	-6.015213e-003	-2.219715e-005	2.580580e-005	2.263676e-005	3.433416e-005	9.475464e-001	7.345026e-002
1523423.423	1.002167e+000	-6.360396e-003	5.834875e-006	-1.660583e-005	1.530155e-005	-7.453810e-006	9.483355e-001	6.362672e-002
1533133.133	1.002258e+000	-6.137579e-003	-1.798608e-005	-6.331961e-006	2.122323e-005	1.491121e-006	9.493291e-001	5.355916e-002
1542842.843	1.002506e+000	-6.421862e-003	2.215605e-005	-5.256949e-005	2.890221e-005	-1.509493e-005	9.485394e-001	4.358057e-002
1552552.553	1.001508e+000	-6.435100e-003	2.911246e-006	1.016432e-005	1.109085e-005	-1.994864e-005	9.497924e-001	3.410484e-002
1562262.262	1.001756e+000	-5.543578e-003	1.373435e-005	4.660564e-006	-2.716078e-005	1.622144e-005	9.499996e-001	2.445989e-002
1571971.972	1.002428e+000	-5.530741e-003	2.764435e-005	-3.158918e-005	-2.284290e-006	-1.591703e-005	9.496118e-001	1.473613e-002
1581681.682	1.002819e+000	-5.874912e-003	5.298893e-005	4.762339e-005	-5.637051e-007	1.962647e-005	9.501709e-001	5.598128e-003
1591391.391	1.002596e+000	-5.462067e-003	-3.698895e-006	1.002453e-006	3.847554e-006	5.761390e-006	9.494535e-001	-4.076037e-003
1601101.101	1.003198e+000	-6.353601e-003	3.064942e-005	8.656320e-006	-1.784366e-006	-4.249789e-005	9.499421e-001	-1.362428e-002
1610810.811	1.002477e+000	-6.276107e-003	-4.473887e-005	-6.328013e-005	6.831392e-006	5.438486e-005	9.495313e-001	-2.274356e-002
1620520.521	1.002284e+000	-6.399087e-003	1.593983e-005	4.872737e-005	-1.072732e-005	-3.030519e-005	9.485777e-001	-3.211692e-002
1630230.230	1.002471e+000	-6.451586e-003	-2.929164e-005	3.403793e-005	-7.942746e-006	-5.426118e-005	9.487631e-001	-4.102107e-002
1639939.940	1.002621e+000	-5.792406e-003	-3.845540e-005	-1.168863e-005	-1.734181e-005	-6.947913e-007	9.483836e-001	-5.052368e-002
1649649.650	1.003158e+000	-6.415483e-003	-2.198742e-005	4.343732e-006	1.778085e-006	2.256060e-005	9.475943e-001	-5.938552e-002
1659359.359	1.002561e+000	-6.154720e-003	1.307030e-005	9.835786e-006	-4.505900e-006	3.315308e-005	9.469548e-001	-6.844908e-002
1669069.069	1.002020e+000	-6.271636e-003	-7.902073e-006	1.577853e-005	-4.697284e-005	-3.526121e-005	9.456848e-001	-7.805424e-002
1678778.779	1.002644e+000	-5.859374e-003	4.314919e-006	-7.372048e-006	3.077694e-005	1.205106e-006	9.450199e-001	-8.605681e-002
1688488.488	1.001751e+000	-6.242094e-003	8.819559e-006	-1.333829e-005	2.262563e-005	-2.287796e-005	9.452331e-001	-9.534558e-002
1698198.198	1.002171e+000	-6.518819e-003	1.700898e-005	-2.826770e-005	2.107860e-005	5.892235e-006	9.428465e-001	-1.037358e-001
1707907.908	1.002086e+000	-6.296417e-003	1.510864e-007	-2.039870e-005	-2.236734e-005	1.206450e-005	9.422424e-001	-1.127279e-001
1717617.618	1.002116e+000	-6.066939e-003	1.843356e-005	5.559218e-006	-1.597271e-005	-2.263284e-005	9.411698e-001	-1.209711e-001
1727327.327	1.002788e+000	-5.697233e-003	2.846964e-005	-4.469113e-005	1.792555e-005	-1.806089e-005	9.395846e-001	-1.297570e-001
1737037.037	1.002077e+000	-6.351860e-003	-9.002159e-007	-3.588494e-005	1.622196e-005	-3.140840e-006	9.384883e-001	-1.376606e-001
1746746.747	1.002150e+000	-6.244619e-003	2.810986e-006	-9.639649e-006	-9.753984e-006	3.284542e-005	9.373072e-001	-1.473178e-001
1756456.456	1.001890e+000	-6.294895e-003	-3.050991e-005	-2.594456e-005	2.000760e-005	-2.636720e-005	9.362837e-001	-1.555196e-001
1766166.166	1.002614e+000	-6.388416e-003	2.362401e-005	1.212202e-005	4.678637e-005	9.482029e-006	9.341506e-001	-1.630804e-001
1775875.876	1.001939e+000	-6.275420e-003	2.610734e-005	1.238143e-005	3.835961e-005	-1.698654e-005	9.321227e-001	-1.716300e-001
1785585.586	1.002795e+000	-5.814310e-003	-1.328064e-005	6.422899e-006	-1.698257e-005	1.557564e-005	9.305499e-001	-1.800551e-001
1795295.295	1.002103e+000	-6.192636e-003	-6.369543e-006	-1.485756e-005	-9.494001e-006	-1.880581e-005	9.286902e-001	-1.880117e-001
1805005.005	1.001998e+000	-6.180775e-003	3.817786e-005	-5.412185e-005	-2.986200e-005	1.200254e-005	9.273384e-001	-1.961419e-001
