!Keysight Technologies,E5061B,MY49709559,B.05.06
!Date: Thu Apr 07 18:54:58 2022
!Data & Calibration Information:
!Freq	S11:SOLT2(ON)	S21:SOLT2(ON)	S12:SOLT2(ON)	S22:SOLT2(ON)
# Hz S RI R 50
300000.000	7.653812e-001	2.019344e-001	4.382148e-001	5.107575e-002	4.303504e-001	4.638171e-002	-8.796067e-001	1.759428e-002
309709.710	7.655974e-001	1.941411e-001	4.379350e-001	4.883485e-002	4.323148e-001	4.497306e-002	-8.805154e-001	1.698122e-002
319419.419	7.661625e-001	1.870641e-001	4.379636e-001	4.704458e-002	4.330743e-001	4.339378e-002	-8.802672e-001	1.746644e-002
329129.129	7.666907e-001	1.815451e-001	4.383410e-001	4.512432e-002	4.340141e-001	4.219524e-002	-8.813551e-001	1.678834e-002
338838.839	7.675725e-001	1.753287e-001	4.383615e-001	4.332789e-002	4.348539e-001	4.036744e-002	-8.814259e-001	1.781121e-002
348548.549	7.684063e-001	1.699304e-001	4.387480e-001	4.232119e-002	4.353407e-001	3.953497e-002	-8.817918e-001	1.693316e-002
358258.258	7.690863e-001	1.646908e-001	4.386902e-001	4.050624e-002	4.357294e-001	3.804759e-002	-8.814411e-001	1.802608e-002
367967.968	7.697100e-001	1.596304e-001	4.389447e-001	3.907458e-002	4.359652e-001	3.696555e-002	-8.813910e-001	1.684726e-002
377677.678	7.705559e-001	1.554516e-001	4.393138e-001	3.810848e-002	4.364650e-001	3.559422e-002	-8.816972e-001	1.657891e-002
387387.387	7.714690e-001	1.506780e-001	4.395156e-001	3.685806e-002	4.368041e-001	3.475337e-002	-8.822403e-001	1.665191e-002
397097.097	7.718449e-001	1.463226e-001	4.395564e-001	3.522906e-002	4.372012e-001	3.290833e-002	-8.812238e-001	1.774800e-002
406806.807	7.720452e-001	1.430454e-001	4.398237e-001	3.512133e-002	4.372543e-001	3.275485e-002	-8.816274e-001	1.684578e-002
416516.517	7.727940e-001	1.379322e-001	4.399507e-001	3.317274e-002	4.374170e-001	3.137681e-002	-8.815096e-001	1.743499e-002
426226.226	7.735106e-001	1.347026e-001	4.401845e-001	3.246071e-002	4.376013e-001	3.078863e-002	-8.813962e-001	1.645993e-002
435935.936	7.733994e-001	1.309196e-001	4.400113e-001	3.134790e-002	4.375627e-001	2.976768e-002	-8.809162e-001	1.674924e-002
445645.646	7.742741e-001	1.277636e-001	4.404824e-001	3.033830e-002	4.380260e-001	2.899519e-002	-8.812215e-001	1.695818e-002
455355.355	7.743409e-001	1.243394e-001	4.406254e-001	2.954697e-002	4.382840e-001	2.805740e-002	-8.817316e-001	1.647151e-002
465065.065	7.743143e-001	1.210666e-001	4.405162e-001	2.866156e-002	4.381413e-001	2.718981e-002	-8.812046e-001	1.698371e-002
474774.775	7.749400e-001	1.183917e-001	4.403302e-001	2.796276e-002	4.382937e-001	2.632990e-002	-8.812875e-001	1.684256e-002
484484.484	7.754403e-001	1.153654e-001	4.406085e-001	2.704996e-002	4.384033e-001	2.582980e-002	-8.816373e-001	1.636604e-002
494194.194	7.756077e-001	1.123595e-001	4.407775e-001	2.620944e-002	4.387623e-001	2.505301e-002	-8.819097e-001	1.696094e-002
503903.904	7.759667e-001	1.096184e-001	4.407549e-001	2.530365e-002	4.383312e-001	2.451728e-002	-8.815434e-001	1.723333e-002
513613.614	7.764485e-001	1.073270e-001	4.409633e-001	2.470480e-002	4.388733e-001	2.383904e-002	-8.819387e-001	1.717718e-002
523323.323	7.766839e-001	1.049296e-001	4.408792e-001	2.395362e-002	4.389332e-001	2.258294e-002	-8.819701e-001	1.720433e-002
533033.033	7.769051e-001	1.022924e-001	4.412120e-001	2.320136e-002	4.390402e-001	2.214010e-002	-8.821033e-001	1.775949e-002
542742.743	7.766015e-001	9.983486e-002	4.409665e-001	2.239525e-002	4.389499e-001	2.135161e-002	-8.814189e-001	1.781057e-002
552452.452	7.772143e-001	9.772291e-002	4.408361e-001	2.148830e-002	4.389259e-001	2.074754e-002	-8.813046e-001	1.797313e-002
562162.162	7.769274e-001	9.570279e-002	4.408465e-001	2.112110e-002	4.393941e-001	2.038171e-002	-8.821848e-001	1.782763e-002
571871.872	7.776544e-001	9.367522e-002	4.410044e-001	2.049253e-002	4.392769e-001	1.958720e-002	-8.812339e-001	1.779717e-002
581581.582	7.779949e-001	9.125777e-002	4.414724e-001	1.964876e-002	4.392386e-001	1.910137e-002	-8.814641e-001	1.738901e-002
591291.291	7.774387e-001	8.930452e-002	4.413078e-001	1.929791e-002	4.391870e-001	1.846089e-002	-8.811970e-001	1.769050e-002
601001.001	7.776130e-001	8.741983e-002	4.410376e-001	1.892466e-002	4.390685e-001	1.810954e-002	-8.812620e-001	1.790618e-002
610710.711	7.776972e-001	8.556576e-002	4.412895e-001	1.812616e-002	4.391991e-001	1.752930e-002	-8.810987e-001	1.783697e-002
620420.420	7.781902e-001	8.366379e-002	4.412898e-001	1.758080e-002	4.394930e-001	1.709876e-002	-8.813958e-001	1.783712e-002
630130.130	7.783740e-001	8.178187e-002	4.411648e-001	1.749698e-002	4.395299e-001	1.645280e-002	-8.814904e-001	1.795174e-002
639839.840	7.784408e-001	8.000477e-002	4.412754e-001	1.684659e-002	4.394830e-001	1.615186e-002	-8.807789e-001	1.791576e-002
649549.550	7.786404e-001	7.855698e-002	4.417357e-001	1.633931e-002	4.392589e-001	1.562847e-002	-8.811109e-001	1.789245e-002
659259.259	7.785659e-001	7.642474e-002	4.414329e-001	1.551273e-002	4.394312e-001	1.534535e-002	-8.806552e-001	1.812230e-002
668968.969	7.785811e-001	7.522703e-002	4.415139e-001	1.528227e-002	4.394645e-001	1.484941e-002	-8.811840e-001	1.796574e-002
678678.679	7.789919e-001	7.364371e-002	4.415272e-001	1.480686e-002	4.397848e-001	1.415260e-002	-8.812382e-001	1.852863e-002
688388.388	7.789164e-001	7.187745e-002	4.415192e-001	1.421223e-002	4.397555e-001	1.379125e-002	-8.811911e-001	1.849824e-002
698098.098	7.787797e-001	7.092967e-002	4.416306e-001	1.383546e-002	4.399260e-001	1.331795e-002	-8.816804e-001	1.832933e-002
707807.808	7.795706e-001	6.924296e-002	4.416794e-001	1.336623e-002	4.396813e-001	1.300100e-002	-8.809193e-001	1.889648e-002
717517.518	7.791462e-001	6.778209e-002	4.416703e-001	1.314775e-002	4.396023e-001	1.270207e-002	-8.809872e-001	1.876742e-002
727227.227	7.792182e-001	6.610045e-002	4.414355e-001	1.250199e-002	4.399697e-001	1.233488e-002	-8.810069e-001	1.874375e-002
736936.937	7.790213e-001	6.489661e-002	4.414524e-001	1.234329e-002	4.396021e-001	1.175316e-002	-8.811765e-001	1.890817e-002
746646.647	7.794620e-001	6.311340e-002	4.415230e-001	1.153162e-002	4.398724e-001	1.136495e-002	-8.810686e-001	1.928148e-002
756356.356	7.790060e-001	6.200405e-002	4.413788e-001	1.107182e-002	4.398408e-001	1.109319e-002	-8.810256e-001	1.927105e-002
766066.066	7.793194e-001	6.081084e-002	4.414461e-001	1.087406e-002	4.399024e-001	1.057795e-002	-8.810425e-001	1.883066e-002
775775.776	7.792272e-001	5.935170e-002	4.414065e-001	1.035538e-002	4.397873e-001	1.081365e-002	-8.811040e-001	1.877180e-002
785485.485	7.799064e-001	5.870964e-002	4.420769e-001	1.080237e-002	4.395678e-001	9.807257e-003	-8.806289e-001	1.936219e-002
795195.195	7.794946e-001	5.711702e-002	4.416431e-001	9.895765e-003	4.398430e-001	9.814785e-003	-8.810439e-001	1.942643e-002
804904.905	7.796059e-001	5.640912e-002	4.418280e-001	9.775080e-003	4.397197e-001	9.110490e-003	-8.805770e-001	1.961318e-002
814614.615	7.803879e-001	5.476545e-002	4.419892e-001	8.951184e-003	4.399024e-001	9.034880e-003	-8.807441e-001	1.937601e-002
824324.324	7.796863e-001	5.328373e-002	4.415337e-001	8.787929e-003	4.398971e-001	8.583554e-003	-8.800275e-001	1.964781e-002
834034.034	7.803712e-001	5.234617e-002	4.422533e-001	8.364509e-003	4.396754e-001	8.247414e-003	-8.804527e-001	2.002113e-002
843743.744	7.795178e-001	5.132777e-002	4.417980e-001	8.171734e-003	4.400416e-001	7.703968e-003	-8.810997e-001	2.018925e-002
853453.453	7.799430e-001	5.014069e-002	4.417521e-001	7.517231e-003	4.401543e-001	7.597357e-003	-8.808171e-001	2.024026e-002
863163.163	7.799941e-001	4.931022e-002	4.416428e-001	7.297094e-003	4.397219e-001	7.151853e-003	-8.803530e-001	2.008462e-002
872872.873	7.800649e-001	4.876241e-002	4.419043e-001	7.305187e-003	4.398767e-001	6.825402e-003	-8.806427e-001	2.092715e-002
882582.583	7.796350e-001	4.712584e-002	4.417470e-001	6.706469e-003	4.402482e-001	6.605165e-003	-8.810383e-001	2.069074e-002
892292.292	7.799911e-001	4.621082e-002	4.417645e-001	6.448272e-003	4.397444e-001	6.173770e-003	-8.804039e-001	2.104890e-002
902002.002	7.795445e-001	4.480666e-002	4.416414e-001	5.869038e-003	4.397930e-001	5.849284e-003	-8.806303e-001	2.066115e-002
911711.712	7.793802e-001	4.409977e-002	4.414509e-001	5.524206e-003	4.397932e-001	5.709745e-003	-8.805753e-001	2.100158e-002
921421.421	7.796117e-001	4.296554e-002	4.416242e-001	5.245166e-003	4.398227e-001	5.601477e-003	-8.803813e-001	2.074177e-002
931131.131	7.798864e-001	4.238320e-002	4.418271e-001	5.080486e-003	4.401869e-001	5.249475e-003	-8.811196e-001	2.132678e-002
940840.841	7.796270e-001	4.130739e-002	4.418045e-001	4.485589e-003	4.399135e-001	4.747963e-003	-8.807580e-001	2.124348e-002
950550.551	7.796958e-001	4.026750e-002	4.416812e-001	4.562942e-003	4.399190e-001	4.720404e-003	-8.799678e-001	2.160663e-002
960260.260	7.799641e-001	3.953738e-002	4.417241e-001	4.317009e-003	4.399051e-001	4.354191e-003	-8.801854e-001	2.176010e-002
969969.970	7.797281e-001	3.873573e-002	4.416375e-001	3.836102e-003	4.397282e-001	4.267125e-003	-8.797048e-001	2.147201e-002
979679.680	7.800728e-001	3.806294e-002	4.417039e-001	3.718831e-003	4.401176e-001	4.055867e-003	-8.805168e-001	2.162339e-002
989389.389	7.802088e-001	3.692445e-002	4.418516e-001	3.490400e-003	4.398077e-001	3.451459e-003	-8.800688e-001	2.230744e-002
999099.099	7.797910e-001	3.608875e-002	4.415433e-001	2.841382e-003	4.398954e-001	3.454406e-003	-8.798924e-001	2.173089e-002
1008808.809	7.796364e-001	3.539254e-002	4.415849e-001	2.950279e-003	4.396722e-001	3.254321e-003	-8.799973e-001	2.230620e-002
1018518.519	7.799317e-001	3.447555e-002	4.416494e-001	2.680606e-003	4.398303e-001	2.782620e-003	-8.797340e-001	2.233939e-002
1028228.228	7.800113e-001	3.380037e-002	4.415544e-001	2.272289e-003	4.400176e-001	2.421527e-003	-8.802809e-001	2.291486e-002
1037937.938	7.792982e-001	3.292336e-002	4.413352e-001	2.233636e-003	4.400266e-001	2.446435e-003	-8.800507e-001	2.259025e-002
1047647.648	7.800938e-001	3.204012e-002	4.415694e-001	2.007231e-003	4.398956e-001	2.068394e-003	-8.799841e-001	2.293583e-002
1057357.357	7.797651e-001	3.103129e-002	4.414727e-001	1.651542e-003	4.398503e-001	1.546473e-003	-8.800822e-001	2.348389e-002
1067067.067	7.794330e-001	3.035690e-002	4.410325e-001	1.285710e-003	4.398961e-001	1.365217e-003	-8.799918e-001	2.314562e-002
1076776.777	7.804332e-001	2.913899e-002	4.417613e-001	1.040248e-003	4.395731e-001	1.002452e-003	-8.796064e-001	2.373575e-002
1086486.486	7.800110e-001	2.862559e-002	4.417160e-001	9.065203e-004	4.397266e-001	6.671405e-004	-8.795563e-001	2.371332e-002
1096196.196	7.799239e-001	2.780366e-002	4.414383e-001	5.425545e-004	4.395254e-001	4.395954e-004	-8.795007e-001	2.390599e-002
1105905.906	7.799259e-001	2.772898e-002	4.414968e-001	6.542159e-004	4.398043e-001	6.587590e-004	-8.799543e-001	2.339605e-002
1115615.616	7.799397e-001	2.672386e-002	4.412523e-001	1.803565e-004	4.398077e-001	1.385017e-004	-8.798523e-001	2.419552e-002
1125325.325	7.800214e-001	2.607292e-002	4.415892e-001	1.148055e-004	4.397949e-001	-3.209218e-004	-8.794727e-001	2.427422e-002
1135035.035	7.798120e-001	2.568715e-002	4.411187e-001	-5.124761e-005	4.399584e-001	-8.700670e-005	-8.799026e-001	2.423404e-002
1144744.745	7.802785e-001	2.427300e-002	4.417247e-001	-6.633414e-004	4.396339e-001	-5.490511e-004	-8.794418e-001	2.463049e-002
1154454.454	7.796160e-001	2.412759e-002	4.412330e-001	-5.976513e-004	4.396134e-001	-4.626351e-004	-8.794303e-001	2.432701e-002
1164164.164	7.796648e-001	2.306867e-002	4.415768e-001	-1.260465e-003	4.394780e-001	-7.382799e-004	-8.792147e-001	2.452497e-002
1173873.874	7.798810e-001	2.309662e-002	4.415185e-001	-7.641331e-004	4.396905e-001	-8.436238e-004	-8.794060e-001	2.489875e-002
1183583.584	7.794422e-001	2.249636e-002	4.410441e-001	-1.175014e-003	4.395172e-001	-1.171594e-003	-8.792534e-001	2.480404e-002
1193293.293	7.803988e-001	2.120354e-002	4.417732e-001	-1.922142e-003	4.396029e-001	-1.018112e-003	-8.792959e-001	2.445374e-002
1203003.003	7.796288e-001	2.080055e-002	4.412004e-001	-1.931115e-003	4.395602e-001	-1.780633e-003	-8.789928e-001	2.513346e-002
1212712.713	7.798111e-001	2.049978e-002	4.412682e-001	-1.738863e-003	4.397150e-001	-1.678856e-003	-8.791654e-001	2.500010e-002
1222422.422	7.801247e-001	1.967331e-002	4.415366e-001	-2.180867e-003	4.392868e-001	-2.082574e-003	-8.787626e-001	2.559115e-002
1232132.132	7.797996e-001	1.952182e-002	4.412153e-001	-2.060249e-003	4.396254e-001	-2.146575e-003	-8.791513e-001	2.499929e-002
1241841.842	7.806127e-001	1.833543e-002	4.418655e-001	-2.769471e-003	4.392837e-001	-2.600853e-003	-8.786567e-001	2.526587e-002
1251551.552	7.804872e-001	1.744629e-002	4.418718e-001	-3.002249e-003	4.395263e-001	-3.031201e-003	-8.793597e-001	2.601172e-002
1261261.261	7.796595e-001	1.718381e-002	4.414781e-001	-2.940787e-003	4.392766e-001	-2.734877e-003	-8.790809e-001	2.570094e-002
1270970.971	7.800390e-001	1.647613e-002	4.414401e-001	-3.091147e-003	4.395789e-001	-3.091600e-003	-8.790256e-001	2.576490e-002
1280680.681	7.798540e-001	1.592239e-002	4.417328e-001	-3.232380e-003	4.393257e-001	-3.535432e-003	-8.786271e-001	2.655059e-002
1290390.390	7.799867e-001	1.518152e-002	4.415988e-001	-3.583056e-003	4.397867e-001	-3.870308e-003	-8.789221e-001	2.622105e-002
1300100.100	7.800898e-001	1.506065e-002	4.415550e-001	-3.497965e-003	4.396499e-001	-4.174178e-003	-8.784972e-001	2.691007e-002
1309809.810	7.803081e-001	1.420193e-002	4.417859e-001	-4.193228e-003	4.394999e-001	-3.975268e-003	-8.788589e-001	2.649667e-002
1319519.520	7.798818e-001	1.340115e-002	4.414930e-001	-4.152555e-003	4.397952e-001	-4.271642e-003	-8.788314e-001	2.683769e-002
1329229.229	7.801696e-001	1.297893e-002	4.416548e-001	-4.263765e-003	4.394130e-001	-4.340253e-003	-8.785296e-001	2.685905e-002
1338938.939	7.798135e-001	1.207567e-002	4.415174e-001	-4.659347e-003	4.396286e-001	-4.650828e-003	-8.788534e-001	2.707925e-002
1348648.649	7.803195e-001	1.192811e-002	4.415302e-001	-4.807925e-003	4.393180e-001	-4.693424e-003	-8.783318e-001	2.671831e-002
1358358.358	7.801827e-001	1.119497e-002	4.416205e-001	-4.967033e-003	4.396866e-001	-4.903894e-003	-8.789646e-001	2.749310e-002
1368068.068	7.798477e-001	1.084709e-002	4.412679e-001	-5.240580e-003	4.391577e-001	-5.126344e-003	-8.783720e-001	2.747659e-002
1377777.778	7.799264e-001	9.438242e-003	4.412082e-001	-5.833749e-003	4.394694e-001	-5.466089e-003	-8.786032e-001	2.742422e-002
1387487.487	7.802050e-001	9.334680e-003	4.414558e-001	-5.835532e-003	4.391359e-001	-5.609182e-003	-8.783542e-001	2.765593e-002
1397197.197	7.800122e-001	8.459797e-003	4.412275e-001	-5.940868e-003	4.395362e-001	-5.876577e-003	-8.785008e-001	2.788739e-002
1406906.907	7.798760e-001	8.590889e-003	4.413757e-001	-5.837502e-003	4.393394e-001	-5.918403e-003	-8.782960e-001	2.774636e-002
1416616.617	7.797838e-001	8.285432e-003	4.410825e-001	-6.111976e-003	4.396011e-001	-5.869734e-003	-8.781498e-001	2.758569e-002
1426326.326	7.793800e-001	7.424509e-003	4.408430e-001	-6.493926e-003	4.394983e-001	-6.199737e-003	-8.783486e-001	2.823990e-002
1436036.036	7.800036e-001	6.725904e-003	4.412547e-001	-6.790641e-003	4.389902e-001	-6.368028e-003	-8.774992e-001	2.837018e-002
1445745.746	7.795010e-001	6.228039e-003	4.411808e-001	-6.973918e-003	4.391572e-001	-6.334131e-003	-8.782174e-001	2.811755e-002
1455455.455	7.801919e-001	6.087086e-003	4.412820e-001	-6.852064e-003	4.392091e-001	-6.843631e-003	-8.775200e-001	2.842546e-002
1465165.165	7.797942e-001	4.732736e-003	4.410621e-001	-7.479687e-003	4.394144e-001	-6.986468e-003	-8.782849e-001	2.848144e-002
1474874.875	7.797651e-001	4.188489e-003	4.412472e-001	-7.591777e-003	4.390808e-001	-6.865989e-003	-8.779358e-001	2.803374e-002
1484584.585	7.800248e-001	3.769953e-003	4.413022e-001	-7.836783e-003	4.396255e-001	-6.999810e-003	-8.781300e-001	2.830169e-002
1494294.294	7.803206e-001	3.409522e-003	4.411083e-001	-7.851526e-003	4.390630e-001	-7.626340e-003	-8.776000e-001	2.847755e-002
1504004.004	7.797218e-001	3.190124e-003	4.411744e-001	-8.187568e-003	4.394110e-001	-7.683864e-003	-8.783341e-001	2.904248e-002
1513713.714	7.800946e-001	2.565028e-003	4.410476e-001	-8.332984e-003	4.393750e-001	-7.696324e-003	-8.778316e-001	2.855231e-002
1523423.423	7.799719e-001	2.237034e-003	4.414536e-001	-8.257807e-003	4.395154e-001	-8.216507e-003	-8.780579e-001	2.948319e-002
1533133.133	7.795772e-001	1.328889e-003	4.409197e-001	-8.600424e-003	4.392487e-001	-8.534126e-003	-8.776375e-001	2.954826e-002
1542842.843	7.799501e-001	8.757596e-004	4.414107e-001	-8.605888e-003	4.393524e-001	-8.237005e-003	-8.777002e-001	2.928680e-002
1552552.553	7.797307e-001	1.860544e-004	4.409519e-001	-9.190427e-003	4.392101e-001	-8.471057e-003	-8.778975e-001	2.968456e-002
1562262.262	7.793429e-001	4.289060e-005	4.408886e-001	-9.196684e-003	4.395153e-001	-8.648967e-003	-8.784406e-001	3.008750e-002
1571971.972	7.799508e-001	-8.809276e-004	4.409405e-001	-9.243272e-003	4.393665e-001	-8.654873e-003	-8.779824e-001	2.967534e-002
1581681.682	7.802011e-001	-8.038405e-004	4.409520e-001	-9.269229e-003	4.388739e-001	-8.846326e-003	-8.774893e-001	2.941670e-002
1591391.391	7.796998e-001	-1.111890e-003	4.410186e-001	-9.410017e-003	4.390530e-001	-9.383864e-003	-8.774278e-001	3.019946e-002
1601101.101	7.797561e-001	-1.666643e-003	4.409563e-001	-9.329330e-003	4.392571e-001	-9.454806e-003	-8.775789e-001	3.051416e-002
1610810.811	7.797464e-001	-2.093945e-003	4.408168e-001	-9.752222e-003	4.391968e-001	-9.552470e-003	-8.773850e-001	3.052414e-002
1620520.521	7.797976e-001	-2.414256e-003	4.411617e-001	-9.679619e-003	4.388919e-001	-9.702229e-003	-8.772621e-001	3.061415e-002
1630230.230	7.793209e-001	-3.366982e-003	4.408217e-001	-1.023113e-002	4.388850e-001	-9.894410e-003	-8.774323e-001	3.037757e-002
1639939.940	7.799273e-001	-4.255211e-003	4.410592e-001	-1.059144e-002	4.391688e-001	-1.035388e-002	-8.774375e-001	3.122799e-002
1649649.650	7.798580e-001	-3.993158e-003	4.409948e-001	-1.037497e-002	4.392573e-001	-1.022203e-002	-8.775833e-001	3.095364e-002
1659359.359	7.796355e-001	-4.887275e-003	4.409973e-001	-1.069748e-002	4.389885e-001	-1.040341e-002	-8.772180e-001	3.123110e-002
1669069.069	7.795685e-001	-5.247078e-003	4.408630e-001	-1.070431e-002	4.392151e-001	-1.078419e-002	-8.777105e-001	3.146555e-002
1678778.779	7.792158e-001	-5.928461e-003	4.404853e-001	-1.114596e-002	4.391752e-001	-1.073350e-002	-8.773125e-001	3.175067e-002
1688488.488	7.796693e-001	-6.000390e-003	4.408855e-001	-1.095797e-002	4.391495e-001	-1.104987e-002	-8.774589e-001	3.203616e-002
1698198.198	7.799693e-001	-6.332726e-003	4.411700e-001	-1.126893e-002	4.389481e-001	-1.119155e-002	-8.770873e-001	3.185580e-002
1707907.908	7.795449e-001	-6.868612e-003	4.408735e-001	-1.111570e-002	4.390695e-001	-1.142002e-002	-8.774014e-001	3.171767e-002
1717617.618	7.792314e-001	-7.482574e-003	4.409455e-001	-1.139517e-002	4.392405e-001	-1.146677e-002	-8.772083e-001	3.205624e-002
1727327.327	7.792705e-001	-7.005185e-003	4.408717e-001	-1.151325e-002	4.390368e-001	-1.166268e-002	-8.772617e-001	3.275828e-002
1737037.037	7.791872e-001	-8.281091e-003	4.405961e-001	-1.175019e-002	4.391433e-001	-1.177317e-002	-8.773802e-001	3.253909e-002
1746746.747	7.792442e-001	-8.859604e-003	4.408403e-001	-1.204089e-002	4.389217e-001	-1.177157e-002	-8.773141e-001	3.266977e-002
1756456.456	7.792472e-001	-8.843556e-003	4.409910e-001	-1.207331e-002	4.390342e-001	-1.202966e-002	-8.771173e-001	3.265987e-002
1766166.166	7.789528e-001	-9.398862e-003	4.406066e-001	-1.237603e-002	4.389741e-001	-1.211051e-002	-8.772035e-001	3.267885e-002
1775875.876	7.790116e-001	-9.455013e-003	4.404657e-001	-1.257968e-002	4.389701e-001	-1.233001e-002	-8.767926e-001	3.291259e-002
1785585.586	7.793477e-001	-1.011221e-002	4.406504e-001	-1.262909e-002	4.388805e-001	-1.269932e-002	-8.773065e-001	3.328665e-002
1795295.295	7.791510e-001	-1.065467e-002	4.408073e-001	-1.265612e-002	4.391026e-001	-1.301662e-002	-8.770333e-001	3.365088e-002
1805005.005	7.790746e-001	-1.131066e-002	4.406367e-001	-1.307797e-002	4.389150e-001	-1.291030e-002	-8.769472e-001	3.331590e-002
1814714.715	7.793288e-001	-1.156886e-002	4.407552e-001	-1.320447e-002	4.388002e-001	-1.329771e-002	-8.769413e-001	3.392373e-002
