!Keysight Technologies,E5061B,MY49709559,B.05.06
!Date: Fri Apr 08 00:52:02 2022
!Data & Calibration Information:
!Freq	S11:SOLT2(ON)	S21:SOLT2(ON)	S12:SOLT2(ON)	S22:SOLT2(ON)
# Hz S RI R 50
300000.000	-9.895500e-001	7.493736e-003	1.260931e-005	1.696494e-005	4.408845e-005	-1.565345e-005	9.042590e-001	-5.269483e-004
309709.710	-9.897991e-001	8.306180e-003	-2.710446e-005	1.813786e-005	6.644505e-005	2.462322e-005	9.034314e-001	-9.810280e-004
319419.419	-9.905156e-001	8.720999e-003	5.297450e-006	5.454642e-005	-1.492655e-005	1.721459e-005	9.038025e-001	-1.094781e-003
329129.129	-9.894501e-001	8.580666e-003	5.100921e-005	1.063283e-005	4.975188e-006	4.851451e-005	9.034787e-001	-9.186130e-004
338838.839	-9.897617e-001	1.007091e-002	1.576083e-005	-2.480135e-005	1.120709e-005	5.635911e-006	9.033803e-001	-1.240330e-003
348548.549	-9.900702e-001	9.982855e-003	-4.595144e-005	1.465443e-005	4.923194e-005	-1.654479e-005	9.032014e-001	-5.454478e-004
358258.258	-9.900550e-001	1.005056e-002	2.629547e-005	-7.651847e-006	-1.068841e-005	1.215661e-005	9.043013e-001	-1.217516e-003
367967.968	-9.898687e-001	1.138695e-002	-3.753458e-005	-3.368770e-005	1.075365e-005	4.379450e-005	9.030850e-001	-1.077220e-003
377677.678	-9.895045e-001	1.024021e-002	-2.608387e-005	7.137411e-005	-2.559898e-005	-1.099356e-005	9.034805e-001	-3.483948e-004
387387.387	-9.892921e-001	1.143365e-002	-2.950807e-005	4.235842e-005	3.411993e-005	1.656620e-005	9.031948e-001	-1.432745e-003
397097.097	-9.910786e-001	1.315561e-002	-2.105683e-005	6.829734e-006	2.851809e-005	-1.951814e-005	9.036187e-001	-3.418553e-004
406806.807	-9.898115e-001	1.164393e-002	-7.033616e-005	2.705013e-005	-2.836722e-005	-5.530539e-005	9.028248e-001	-8.257076e-004
416516.517	-9.905003e-001	1.296578e-002	4.647306e-005	3.627651e-005	-1.015090e-005	1.623360e-006	9.034075e-001	-6.285020e-004
426226.226	-9.895503e-001	1.343161e-002	-1.392252e-005	2.871169e-005	-7.430876e-005	-3.076282e-005	9.036692e-001	-1.593241e-003
435935.936	-9.901473e-001	1.357466e-002	2.410098e-005	2.552734e-005	6.376373e-006	4.936407e-006	9.031894e-001	-8.213547e-004
445645.646	-9.890548e-001	1.465111e-002	-1.547925e-005	7.291110e-006	-1.143854e-005	4.305615e-006	9.032848e-001	-1.300653e-003
455355.355	-9.887974e-001	1.498359e-002	-7.373013e-006	-2.358106e-005	3.555821e-005	1.966909e-005	9.029923e-001	-1.624980e-003
465065.065	-9.894231e-001	1.544455e-002	-2.541211e-006	1.045805e-006	8.953905e-006	3.982683e-006	9.032372e-001	-2.119653e-003
474774.775	-9.889182e-001	1.549991e-002	7.582870e-005	5.108923e-006	1.919246e-005	-1.483051e-005	9.035082e-001	-1.501475e-003
484484.484	-9.889743e-001	1.587625e-002	3.596201e-005	-4.353176e-005	-9.730296e-006	-3.887537e-005	9.033606e-001	-1.086465e-003
494194.194	-9.894206e-001	1.670010e-002	2.082724e-005	-1.406853e-005	5.826295e-006	5.482695e-005	9.033555e-001	-9.387944e-004
503903.904	-9.886440e-001	1.598082e-002	-1.357570e-005	-8.485716e-006	1.117521e-004	-3.481293e-005	9.032457e-001	-1.333928e-003
513613.614	-9.888300e-001	1.516511e-002	-3.944114e-005	-4.890522e-005	-1.803843e-005	7.734815e-005	9.034025e-001	-1.456111e-003
523323.323	-9.883529e-001	1.610447e-002	2.120787e-005	-4.046855e-005	-2.706720e-005	-1.020919e-006	9.032665e-001	-2.230402e-003
533033.033	-9.896536e-001	1.658261e-002	1.127326e-005	-1.681205e-005	-7.076848e-006	2.046300e-005	9.022548e-001	-9.348728e-004
542742.743	-9.890931e-001	1.656070e-002	1.660682e-005	4.309461e-005	-7.220631e-006	3.507591e-005	9.035470e-001	-1.580972e-003
552452.452	-9.894138e-001	1.737475e-002	2.878520e-005	7.566256e-006	-2.615437e-005	-4.819034e-005	9.027786e-001	-2.373237e-003
562162.162	-9.892902e-001	1.814611e-002	1.104532e-005	-7.619779e-006	4.436749e-005	9.236205e-006	9.029651e-001	-1.658605e-003
571871.872	-9.887898e-001	1.709996e-002	1.116162e-005	1.376327e-005	2.032407e-005	-4.807156e-005	9.034026e-001	-1.813249e-003
581581.582	-9.883497e-001	1.797493e-002	4.781493e-005	2.357116e-005	2.128915e-005	-1.861561e-005	9.036005e-001	-2.262524e-003
591291.291	-9.885478e-001	1.900196e-002	-4.339356e-005	5.558627e-006	1.710172e-005	-1.385965e-007	9.029668e-001	-1.506446e-003
601001.001	-9.879324e-001	1.884143e-002	-6.931401e-006	1.104307e-005	9.592322e-006	-1.383888e-005	9.030079e-001	-2.031762e-003
610710.711	-9.889191e-001	1.817403e-002	-5.338277e-006	8.823944e-006	-3.427013e-006	1.551026e-005	9.029393e-001	-1.398949e-003
620420.420	-9.889113e-001	1.924029e-002	-1.521548e-005	-1.745404e-006	-1.817489e-005	-3.220386e-005	9.024616e-001	-1.457898e-003
630130.130	-9.883608e-001	1.943793e-002	1.541384e-006	-3.102198e-006	-1.668692e-005	2.804040e-005	9.030949e-001	-1.968266e-003
639839.840	-9.889947e-001	1.981615e-002	3.598815e-005	-4.238973e-005	-1.122546e-005	4.111575e-006	9.036170e-001	-2.256988e-003
649549.550	-9.875346e-001	1.938635e-002	-1.153342e-005	3.127003e-005	9.523759e-006	4.318557e-005	9.029002e-001	-1.885853e-003
659259.259	-9.866723e-001	2.038762e-002	-1.745873e-005	5.890822e-006	8.321883e-006	-3.690835e-007	9.035328e-001	-1.582336e-003
668968.969	-9.877998e-001	2.012869e-002	1.646762e-005	-7.357888e-006	1.712026e-005	3.718675e-006	9.029898e-001	-1.624135e-003
678678.679	-9.877399e-001	2.093907e-002	2.245740e-005	-2.412326e-005	-3.834462e-006	-4.036804e-005	9.030567e-001	-2.301899e-003
688388.388	-9.871676e-001	2.147759e-002	-4.870895e-005	1.802172e-005	2.236176e-005	1.342355e-005	9.034392e-001	-1.876093e-003
698098.098	-9.871755e-001	2.043050e-002	-5.047034e-005	-2.355722e-005	-3.760044e-005	-3.419383e-005	9.029283e-001	-1.936443e-003
707807.808	-9.874105e-001	2.146337e-002	2.501676e-005	-2.584037e-005	1.333322e-005	3.921183e-005	9.027972e-001	-2.162298e-003
717517.518	-9.868665e-001	2.186753e-002	1.063235e-005	2.844663e-005	-2.091451e-005	1.891334e-005	9.033825e-001	-3.072847e-003
727227.227	-9.874760e-001	2.175922e-002	3.149814e-005	2.699019e-006	2.146787e-005	-9.194893e-006	9.028180e-001	-2.234532e-003
736936.937	-9.867187e-001	2.171782e-002	-2.056693e-005	6.202414e-006	-2.465168e-005	-7.080999e-005	9.028572e-001	-1.712667e-003
746646.647	-9.864621e-001	2.281780e-002	-2.590364e-005	2.345133e-005	1.924535e-005	2.416354e-005	9.031961e-001	-2.014609e-003
756356.356	-9.865420e-001	2.224232e-002	2.694618e-005	-5.157406e-007	1.832839e-005	-2.714521e-005	9.027394e-001	-2.001015e-003
766066.066	-9.871959e-001	2.232656e-002	4.478416e-007	1.808315e-005	3.735734e-006	-1.997698e-005	9.030488e-001	-2.003008e-003
775775.776	-9.857309e-001	2.341200e-002	1.458191e-005	3.187988e-005	-6.079584e-006	-3.620650e-006	9.027342e-001	-2.465184e-003
785485.485	-9.874740e-001	2.357796e-002	2.329324e-005	1.535073e-006	6.234583e-006	-6.703377e-006	9.032474e-001	-1.894989e-003
795195.195	-9.867006e-001	2.394312e-002	-2.413641e-006	1.155851e-006	2.553063e-005	4.246061e-005	9.036455e-001	-2.520799e-003
804904.905	-9.863284e-001	2.436681e-002	-2.829020e-005	-8.203444e-006	1.649802e-005	-1.535478e-005	9.033261e-001	-1.633847e-003
814614.615	-9.860517e-001	2.437676e-002	-2.902786e-006	1.778779e-005	5.096041e-005	-1.044723e-005	9.032347e-001	-1.689562e-003
824324.324	-9.862018e-001	2.424498e-002	-1.192589e-005	-4.013587e-005	-1.104549e-005	1.671044e-005	9.029067e-001	-2.236289e-003
834034.034	-9.860796e-001	2.442220e-002	2.379581e-005	9.782840e-007	1.833614e-005	3.925754e-005	9.027960e-001	-2.183988e-003
843743.744	-9.852377e-001	2.477451e-002	-1.023477e-005	3.909724e-005	-3.628105e-005	3.782183e-005	9.035111e-001	-2.752338e-003
853453.453	-9.858390e-001	2.504905e-002	-1.030989e-005	-8.889532e-006	-7.054976e-006	-1.235154e-005	9.034315e-001	-1.708883e-003
863163.163	-9.858479e-001	2.534153e-002	-1.004357e-005	-5.866525e-005	-2.956511e-005	1.991445e-005	9.032597e-001	-2.687969e-003
872872.873	-9.855714e-001	2.579367e-002	1.323494e-005	-1.744048e-005	-7.734279e-006	2.068745e-005	9.029945e-001	-1.666169e-003
882582.583	-9.865777e-001	2.512795e-002	3.471787e-005	-1.335809e-005	6.712261e-005	2.548550e-005	9.031260e-001	-1.903107e-003
892292.292	-9.854981e-001	2.689506e-002	2.701262e-005	-7.564782e-006	1.496789e-005	-1.548161e-005	9.029843e-001	-2.283574e-003
902002.002	-9.864989e-001	2.546903e-002	5.472827e-005	2.117421e-005	-1.595414e-005	2.267520e-005	9.033421e-001	-2.541706e-003
911711.712	-9.866966e-001	2.569225e-002	-3.535827e-005	2.559843e-006	7.354105e-006	-3.340165e-005	9.026325e-001	-2.410798e-003
921421.421	-9.853313e-001	2.593598e-002	-1.533132e-005	6.545409e-006	2.634490e-005	2.834115e-005	9.026095e-001	-2.375681e-003
931131.131	-9.863285e-001	2.719719e-002	-1.073061e-006	2.961510e-005	1.973633e-005	1.172841e-006	9.030350e-001	-2.832521e-003
940840.841	-9.858954e-001	2.682989e-002	5.330581e-006	-1.331249e-005	2.020618e-005	-2.058049e-005	9.027278e-001	-2.409080e-003
950550.551	-9.850451e-001	2.677749e-002	-1.520720e-005	3.634186e-005	3.915052e-005	-3.708188e-005	9.024408e-001	-2.423948e-003
960260.260	-9.853490e-001	2.801763e-002	-1.126326e-005	2.802074e-005	-1.950761e-005	-6.317167e-006	9.026505e-001	-2.855356e-003
969969.970	-9.857751e-001	2.854166e-002	1.745724e-005	4.124300e-005	3.944753e-005	-7.492641e-006	9.033858e-001	-3.534886e-003
979679.680	-9.851242e-001	2.898929e-002	-5.592486e-007	-1.349971e-006	3.981547e-005	5.669161e-005	9.032153e-001	-2.093825e-003
989389.389	-9.860799e-001	2.807266e-002	5.414317e-007	-3.209938e-006	2.139762e-005	1.698102e-005	9.028676e-001	-2.272772e-003
999099.099	-9.849839e-001	2.747566e-002	-1.857290e-005	3.657155e-005	-1.426424e-005	-1.157053e-005	9.025700e-001	-3.068305e-003
1008808.809	-9.842807e-001	2.854320e-002	-5.660015e-006	-5.497671e-005	-4.116765e-005	2.398284e-005	9.021289e-001	-2.597129e-003
1018518.519	-9.838473e-001	2.867635e-002	-1.008685e-005	1.876817e-005	1.710791e-006	-2.045523e-005	9.025901e-001	-2.306967e-003
1028228.228	-9.846984e-001	2.927947e-002	5.273602e-005	5.156115e-007	6.299925e-005	4.386880e-005	9.032311e-001	-2.921924e-003
1037937.938	-9.848114e-001	2.984283e-002	3.536014e-005	-2.621519e-006	3.328802e-005	-1.983427e-005	9.024865e-001	-3.151660e-003
1047647.648	-9.848699e-001	3.058736e-002	7.962171e-006	2.914871e-005	-4.660216e-006	1.658834e-005	9.028030e-001	-3.666234e-003
1057357.357	-9.844962e-001	3.016758e-002	-5.479766e-006	2.658223e-005	4.053308e-005	6.175370e-005	9.032548e-001	-2.823294e-003
1067067.067	-9.848731e-001	3.064092e-002	-6.192270e-007	-1.743043e-005	1.256793e-005	-6.518512e-005	9.029803e-001	-3.239889e-003
1076776.777	-9.845158e-001	3.046865e-002	9.298119e-006	-6.424386e-005	-5.861271e-006	-1.446981e-005	9.032893e-001	-2.956195e-003
1086486.486	-9.842666e-001	3.120319e-002	-1.209479e-005	-1.303700e-005	1.989643e-005	-1.194022e-006	9.026015e-001	-2.983625e-003
1096196.196	-9.849180e-001	3.146291e-002	5.288321e-005	5.761707e-005	-3.760208e-006	3.078748e-005	9.028863e-001	-2.996615e-003
1105905.906	-9.842847e-001	3.160251e-002	1.932058e-005	3.612040e-005	-5.771871e-005	2.810444e-005	9.033651e-001	-3.568800e-003
1115615.616	-9.840067e-001	3.189271e-002	1.643588e-005	-4.080314e-005	-3.129335e-005	1.234105e-005	9.032093e-001	-3.347055e-003
1125325.325	-9.843867e-001	3.218476e-002	3.667970e-005	-4.192509e-005	7.027043e-006	4.268364e-005	9.031917e-001	-3.058354e-003
1135035.035	-9.843554e-001	3.272901e-002	6.048938e-005	1.419162e-005	-7.626418e-006	-8.611701e-006	9.033862e-001	-2.872203e-003
1144744.745	-9.847824e-001	3.234535e-002	3.031817e-005	4.081615e-006	-1.272733e-005	2.813705e-005	9.028586e-001	-3.078994e-003
1154454.454	-9.834368e-001	3.212978e-002	-1.718946e-005	-2.333615e-005	1.003357e-005	2.851821e-005	9.031573e-001	-3.082494e-003
1164164.164	-9.837890e-001	3.221128e-002	-3.603117e-005	-6.222608e-005	-2.547689e-005	-1.229866e-005	9.026551e-001	-3.656251e-003
1173873.874	-9.847836e-001	3.301629e-002	-2.579534e-005	3.907149e-005	-3.088695e-005	5.170246e-005	9.028594e-001	-3.600010e-003
1183583.584	-9.835719e-001	3.281691e-002	-3.383739e-005	4.433433e-005	-3.422402e-005	5.051188e-005	9.033297e-001	-3.124884e-003
1193293.293	-9.835052e-001	3.402371e-002	4.235030e-005	6.231088e-005	2.563152e-005	7.162616e-006	9.028486e-001	-3.399438e-003
1203003.003	-9.832244e-001	3.359248e-002	-1.202587e-005	5.984608e-007	3.265417e-005	1.406720e-005	9.029559e-001	-3.986066e-003
1212712.713	-9.829440e-001	3.399171e-002	-1.228727e-005	3.423054e-005	-1.342277e-005	1.362214e-007	9.025673e-001	-3.484901e-003
1222422.422	-9.835511e-001	3.381860e-002	-1.274850e-005	8.790670e-006	2.104686e-005	-1.889931e-005	9.029276e-001	-3.951996e-003
1232132.132	-9.835556e-001	3.528020e-002	-3.125153e-008	2.618186e-005	2.014333e-005	6.362085e-005	9.031508e-001	-3.595508e-003
1241841.842	-9.833437e-001	3.423380e-002	-1.104409e-005	-6.712466e-005	-5.996844e-005	-1.638036e-005	9.023804e-001	-3.243015e-003
1251551.552	-9.833143e-001	3.420994e-002	-3.915996e-006	5.531407e-005	-1.030273e-005	-1.341654e-005	9.032246e-001	-3.859050e-003
1261261.261	-9.831732e-001	3.508026e-002	3.294769e-005	1.712554e-005	-4.695885e-006	3.919766e-006	9.026862e-001	-4.431356e-003
1270970.971	-9.837327e-001	3.605044e-002	-1.260624e-005	-6.973519e-006	3.881509e-005	-7.553485e-006	9.027786e-001	-3.405947e-003
1280680.681	-9.837680e-001	3.698344e-002	-2.129719e-005	1.270819e-006	-2.051874e-006	4.211655e-005	9.026779e-001	-3.295379e-003
1290390.390	-9.836479e-001	3.521067e-002	-7.766070e-006	1.527979e-005	4.147231e-006	-5.455602e-006	9.031114e-001	-3.782355e-003
1300100.100	-9.836471e-001	3.651706e-002	5.997638e-006	1.638385e-007	-9.550248e-006	6.311951e-006	9.028567e-001	-3.574033e-003
1309809.810	-9.830658e-001	3.595047e-002	1.011420e-006	1.335224e-005	-1.852652e-005	7.026397e-005	9.028110e-001	-3.813903e-003
1319519.520	-9.833595e-001	3.713203e-002	-3.403510e-005	4.698863e-006	-8.396063e-006	-6.655324e-005	9.030344e-001	-3.957741e-003
1329229.229	-9.832924e-001	3.706915e-002	4.390392e-005	1.901738e-005	1.670353e-005	3.909303e-005	9.032331e-001	-4.313178e-003
1338938.939	-9.831219e-001	3.828080e-002	3.064541e-005	-1.647806e-005	1.964073e-005	-8.670450e-006	9.035203e-001	-3.505967e-003
1348648.649	-9.839043e-001	3.879705e-002	1.122925e-005	3.348235e-005	1.008151e-005	-2.352182e-005	9.020997e-001	-4.352261e-003
1358358.358	-9.833737e-001	3.717680e-002	-3.218554e-005	4.178005e-005	3.057152e-006	2.307210e-005	9.027139e-001	-3.922390e-003
1368068.068	-9.827993e-001	3.717674e-002	-3.236764e-005	9.668668e-006	-1.259235e-005	4.464956e-005	9.030825e-001	-4.565171e-003
1377777.778	-9.820931e-001	3.815831e-002	2.723404e-005	-4.353124e-005	1.661362e-005	1.595089e-005	9.026487e-001	-4.495221e-003
1387487.487	-9.827075e-001	3.909102e-002	-1.856820e-006	6.613874e-005	2.625683e-006	-1.585090e-005	9.026481e-001	-3.947183e-003
1397197.197	-9.817693e-001	3.867999e-002	-3.890215e-005	9.086278e-007	-4.111721e-006	2.945229e-006	9.031297e-001	-4.293146e-003
1406906.907	-9.833215e-001	3.927443e-002	-6.676423e-006	1.016529e-005	-1.398291e-005	4.820303e-006	9.033625e-001	-4.303008e-003
1416616.617	-9.826482e-001	3.889719e-002	-4.457866e-006	-1.552762e-005	4.851388e-005	-1.977772e-005	9.030716e-001	-3.622673e-003
1426326.326	-9.819021e-001	3.987568e-002	7.066377e-006	2.391011e-005	5.604561e-005	-1.455991e-005	9.028352e-001	-4.376361e-003
1436036.036	-9.835058e-001	3.934359e-002	2.357340e-005	-1.059022e-005	-1.274138e-005	3.027814e-005	9.030400e-001	-4.681459e-003
1445745.746	-9.824604e-001	3.933734e-002	-2.739100e-005	-5.840247e-005	-1.117618e-005	-3.247785e-005	9.030259e-001	-4.258449e-003
1455455.455	-9.820886e-001	3.947655e-002	-3.080458e-005	3.324193e-005	6.926050e-006	3.444027e-005	9.028018e-001	-4.095345e-003
1465165.165	-9.818110e-001	4.048179e-002	5.181666e-006	-4.238069e-005	2.957221e-005	-3.842501e-005	9.025179e-001	-3.724666e-003
1474874.875	-9.814934e-001	4.088388e-002	-5.070958e-005	-3.411040e-005	-2.115226e-005	-1.131679e-005	9.026895e-001	-3.853205e-003
1484584.585	-9.820008e-001	4.038873e-002	-8.438089e-006	-1.867826e-005	-2.350848e-005	1.192685e-005	9.037178e-001	-4.347074e-003
1494294.294	-9.825708e-001	4.082150e-002	4.066316e-006	-6.378030e-005	-4.592432e-005	-1.775218e-005	9.032048e-001	-4.542721e-003
1504004.004	-9.815744e-001	4.107050e-002	4.199354e-005	-3.706779e-005	-1.607323e-005	1.990130e-005	9.027568e-001	-5.012713e-003
1513713.714	-9.819240e-001	4.086049e-002	-1.139688e-005	5.589802e-006	1.678656e-005	-3.241085e-006	9.025804e-001	-4.350799e-003
1523423.423	-9.817480e-001	4.210899e-002	9.351752e-006	-2.649303e-005	1.329609e-005	-2.998683e-005	9.026677e-001	-4.003163e-003
1533133.133	-9.823462e-001	4.171465e-002	-6.285227e-006	1.505007e-005	-1.283017e-005	-9.538030e-006	9.025703e-001	-4.483434e-003
1542842.843	-9.828233e-001	4.142571e-002	2.547280e-005	-1.075858e-005	-2.911755e-005	2.740502e-005	9.024790e-001	-5.002772e-003
1552552.553	-9.824689e-001	4.285638e-002	5.152101e-005	-6.770512e-007	1.268368e-005	1.750011e-005	9.030152e-001	-4.088345e-003
1562262.262	-9.814058e-001	4.224095e-002	1.583394e-005	-8.391621e-006	3.444951e-005	4.421768e-006	9.035089e-001	-3.780485e-003
1571971.972	-9.817116e-001	4.244024e-002	-1.332189e-005	-4.069516e-005	1.667389e-005	5.872429e-005	9.036024e-001	-4.951724e-003
1581681.682	-9.824107e-001	4.246831e-002	3.333335e-005	-3.084824e-005	-8.270467e-006	-1.043331e-005	9.025800e-001	-4.683982e-003
1591391.391	-9.818362e-001	4.237488e-002	2.690670e-005	-2.999226e-005	6.044608e-005	-8.467783e-006	9.038906e-001	-4.673625e-003
1601101.101	-9.819076e-001	4.360562e-002	2.544618e-005	-1.318342e-005	-1.201429e-005	-2.662769e-005	9.033151e-001	-5.101689e-003
1610810.811	-9.820887e-001	4.397128e-002	-1.697872e-006	2.170497e-005	-2.231402e-005	-1.846512e-005	9.028072e-001	-4.763352e-003
1620520.521	-9.810746e-001	4.442041e-002	-3.768680e-006	-3.541654e-006	1.029163e-006	-3.314303e-005	9.026033e-001	-4.293037e-003
1630230.230	-9.818813e-001	4.433146e-002	-5.092183e-006	-3.052930e-005	5.938936e-005	6.718136e-006	9.026135e-001	-5.297855e-003
1639939.940	-9.822584e-001	4.466695e-002	-2.033172e-005	-1.951833e-005	3.702491e-005	8.436040e-006	9.028415e-001	-5.066071e-003
1649649.650	-9.817040e-001	4.528547e-002	1.061710e-005	3.694034e-005	3.626601e-005	-2.036608e-005	9.029949e-001	-4.588250e-003
1659359.359	-9.812126e-001	4.499838e-002	-4.920190e-007	-2.740745e-005	-1.072356e-005	7.008818e-006	9.032126e-001	-4.860159e-003
1669069.069	-9.814369e-001	4.591306e-002	-2.000156e-005	-3.063060e-005	8.362469e-005	2.457366e-005	9.028724e-001	-4.795986e-003
1678778.779	-9.814543e-001	4.563949e-002	1.346795e-005	-1.422937e-005	-6.633726e-005	-2.493492e-005	9.024129e-001	-4.355986e-003
1688488.488	-9.808071e-001	4.597036e-002	1.238371e-005	2.164325e-005	6.995246e-006	1.361487e-005	9.033606e-001	-5.181931e-003
1698198.198	-9.810697e-001	4.655156e-002	4.205772e-006	-4.316187e-007	3.887784e-005	-1.321412e-005	9.026997e-001	-5.030589e-003
1707907.908	-9.813295e-001	4.644548e-002	2.963424e-005	5.631550e-006	5.367173e-005	3.626608e-005	9.029009e-001	-4.909244e-003
1717617.618	-9.814352e-001	4.683857e-002	-1.878209e-005	2.452898e-005	9.034717e-006	-2.278430e-005	9.030154e-001	-5.356601e-003
1727327.327	-9.818007e-001	4.677823e-002	-4.066369e-005	2.697804e-005	4.028862e-006	-4.675599e-005	9.028403e-001	-4.984156e-003
1737037.037	-9.816222e-001	4.661078e-002	1.111968e-006	-3.935010e-005	-6.286516e-006	4.819856e-005	9.036645e-001	-5.110749e-003
1746746.747	-9.814087e-001	4.800860e-002	1.020577e-005	2.120465e-005	5.033123e-005	-5.712886e-005	9.023754e-001	-4.708253e-003
1756456.456	-9.801663e-001	4.789042e-002	-3.530620e-005	1.815347e-005	-6.631750e-005	-1.918050e-005	9.028887e-001	-5.468424e-003
1766166.166	-9.805238e-001	4.769935e-002	-3.144143e-005	1.712396e-005	-2.089268e-005	1.071270e-005	9.026401e-001	-4.915467e-003
1775875.876	-9.798473e-001	4.725589e-002	-1.149458e-005	-1.348357e-005	1.830412e-005	-4.526328e-005	9.029586e-001	-5.204120e-003
1785585.586	-9.813973e-001	4.838170e-002	-8.761603e-006	2.797652e-005	3.454893e-005	2.953960e-005	9.028270e-001	-5.883502e-003
1795295.295	-9.807534e-001	4.873939e-002	1.648679e-005	2.626723e-005	-6.532510e-005	-5.904752e-005	9.028466e-001	-5.429009e-003
