!Keysight Technologies,E5061B,MY49709559,B.05.06
!Date: Fri Apr 08 00:55:30 2022
!Data & Calibration Information:
!Freq	S11:SOLT2(ON)	S21:SOLT2(ON)	S12:SOLT2(ON)	S22:SOLT2(ON)
# Hz S RI R 50
300000.000	-9.255144e-001	9.923185e-002	-1.985735e-005	1.239158e-005	1.655868e-005	-1.408721e-005	9.041016e-001	-1.027281e-003
309709.710	-9.242071e-001	1.032168e-001	2.422641e-005	-3.287154e-006	-2.044254e-005	-6.330055e-005	9.036862e-001	-1.464672e-003
319419.419	-9.246670e-001	1.050490e-001	2.359201e-006	-1.658845e-006	-9.985488e-006	-2.791846e-006	9.035708e-001	-8.196517e-004
329129.129	-9.220099e-001	1.087846e-001	-3.399928e-005	1.886462e-005	6.755937e-005	-1.496932e-005	9.036380e-001	-1.100533e-003
338838.839	-9.219728e-001	1.109351e-001	-4.609360e-006	3.364392e-005	1.654779e-005	-5.230539e-005	9.041774e-001	-6.217835e-004
348548.549	-9.210114e-001	1.129099e-001	-5.292428e-006	2.437706e-005	9.603824e-006	-4.609145e-005	9.032015e-001	-1.457157e-003
358258.258	-9.193100e-001	1.159707e-001	1.779079e-005	5.933497e-005	3.047981e-005	3.279573e-005	9.035281e-001	-7.910595e-004
367967.968	-9.184320e-001	1.194817e-001	-3.793825e-005	2.093615e-005	9.823827e-006	-1.051248e-005	9.031389e-001	-7.735811e-004
377677.678	-9.176733e-001	1.208825e-001	-5.249285e-005	-5.151986e-005	-1.390312e-005	2.083766e-005	9.037766e-001	-5.091028e-004
387387.387	-9.172030e-001	1.240182e-001	-2.168093e-005	-2.436292e-005	-2.670698e-005	-2.501808e-005	9.033325e-001	-1.142591e-003
397097.097	-9.161547e-001	1.277673e-001	-4.862423e-005	3.551207e-005	5.356163e-006	-2.151753e-005	9.027521e-001	-9.396022e-004
406806.807	-9.152235e-001	1.289940e-001	-3.986083e-006	-3.660170e-006	-2.176662e-005	-4.813439e-005	9.027862e-001	-1.269723e-003
416516.517	-9.133862e-001	1.325683e-001	2.345837e-005	4.611559e-006	-7.258902e-006	5.979060e-006	9.036663e-001	-1.310342e-003
426226.226	-9.129815e-001	1.343973e-001	1.569811e-005	-1.636451e-005	1.462094e-005	3.336084e-005	9.029821e-001	-1.437026e-003
435935.936	-9.120156e-001	1.373606e-001	-1.728696e-005	1.313742e-005	2.166524e-005	-2.265737e-005	9.033458e-001	-7.537917e-004
445645.646	-9.098934e-001	1.398422e-001	-6.016063e-006	-1.664738e-005	5.589060e-006	4.075502e-005	9.030884e-001	-1.379760e-003
455355.355	-9.090320e-001	1.425378e-001	2.233426e-005	-6.316026e-006	-5.971559e-005	2.117766e-005	9.029945e-001	-1.119632e-003
465065.065	-9.083469e-001	1.453469e-001	-1.412591e-005	-1.533923e-005	2.467146e-005	-2.229017e-005	9.034218e-001	-1.693822e-003
474774.775	-9.073040e-001	1.471492e-001	-6.407468e-005	-1.308558e-005	6.547573e-006	1.013988e-005	9.034902e-001	-1.125936e-003
484484.484	-9.057167e-001	1.496584e-001	-3.383410e-005	9.894235e-006	5.087665e-005	2.288322e-005	9.032171e-001	-8.410277e-004
494194.194	-9.051534e-001	1.525294e-001	5.505519e-005	3.449251e-006	5.645748e-006	2.187988e-005	9.034197e-001	-1.400385e-003
503903.904	-9.044141e-001	1.538300e-001	-4.369656e-005	-5.854259e-006	7.190427e-005	3.075283e-005	9.035139e-001	-1.617633e-003
513613.614	-9.028198e-001	1.566681e-001	-6.197411e-006	-8.117008e-006	5.018616e-006	-1.231659e-005	9.035298e-001	-1.203867e-003
523323.323	-9.021492e-001	1.589661e-001	1.216290e-005	4.334586e-005	8.880053e-006	3.787323e-005	9.031277e-001	-1.236123e-003
533033.033	-9.016070e-001	1.615375e-001	1.536612e-005	4.943117e-006	5.733698e-005	3.217982e-005	9.025359e-001	-1.108491e-003
542742.743	-9.005849e-001	1.643172e-001	-1.665579e-005	1.612853e-007	4.747201e-005	-7.964589e-006	9.031757e-001	-1.679046e-003
552452.452	-9.000293e-001	1.663012e-001	5.634164e-005	3.518266e-005	3.003864e-007	6.565520e-005	9.035984e-001	-1.626844e-003
562162.162	-8.984466e-001	1.685148e-001	-4.712073e-005	4.538081e-006	3.445394e-006	-4.931479e-006	9.031435e-001	-1.452867e-003
571871.872	-8.974889e-001	1.706705e-001	8.095723e-006	4.023179e-005	-2.205316e-005	3.299050e-005	9.032707e-001	-1.856465e-003
581581.582	-8.959178e-001	1.725374e-001	1.028721e-004	2.462217e-005	8.505477e-006	1.332459e-005	9.036079e-001	-2.162417e-003
591291.291	-8.945424e-001	1.751343e-001	-6.907274e-006	2.281872e-007	6.329455e-006	-1.797698e-005	9.034862e-001	-2.097445e-003
601001.001	-8.946416e-001	1.782361e-001	-2.831530e-005	2.046142e-006	-4.275155e-005	-8.733572e-006	9.029359e-001	-2.059818e-003
610710.711	-8.937546e-001	1.801670e-001	3.767118e-005	-1.282064e-005	6.049361e-005	1.785435e-006	9.032419e-001	-1.377476e-003
620420.420	-8.927654e-001	1.820467e-001	1.516779e-005	-5.222213e-005	4.342813e-006	-2.456267e-005	9.023391e-001	-1.344375e-003
630130.130	-8.917576e-001	1.851628e-001	2.981015e-005	1.413423e-005	-1.403167e-005	-3.527435e-005	9.026971e-001	-2.041064e-003
639839.840	-8.904833e-001	1.864189e-001	-1.906106e-005	7.679609e-006	-3.231948e-005	-3.983665e-006	9.035553e-001	-2.173875e-003
649549.550	-8.890420e-001	1.879111e-001	-3.051677e-005	1.475994e-005	6.204209e-005	-3.944182e-005	9.026570e-001	-2.056066e-003
659259.259	-8.871435e-001	1.904643e-001	6.950321e-005	3.942748e-006	3.237578e-006	2.653885e-005	9.033372e-001	-1.809225e-003
668968.969	-8.870814e-001	1.923533e-001	-2.723751e-005	4.143355e-007	-3.692270e-005	-1.267080e-006	9.038292e-001	-1.928678e-003
678678.679	-8.859881e-001	1.951960e-001	3.840190e-006	6.649645e-007	2.074931e-005	3.261101e-006	9.034715e-001	-2.087421e-003
688388.388	-8.845647e-001	1.972614e-001	-1.781916e-005	1.500389e-005	-2.032136e-005	1.693725e-006	9.033484e-001	-2.349291e-003
698098.098	-8.839114e-001	1.993763e-001	3.305025e-005	-2.840778e-005	-3.200344e-005	1.757222e-005	9.034087e-001	-2.389696e-003
707807.808	-8.829162e-001	2.011015e-001	6.582712e-006	-1.529212e-006	1.912901e-005	1.569249e-005	9.032490e-001	-2.236587e-003
717517.518	-8.816951e-001	2.038265e-001	2.446819e-005	4.063921e-005	1.923777e-005	-6.378436e-006	9.029827e-001	-3.042197e-003
727227.227	-8.804776e-001	2.053713e-001	1.460462e-005	-5.372728e-005	-1.984552e-005	-4.522872e-005	9.029249e-001	-2.423455e-003
736936.937	-8.792587e-001	2.073600e-001	1.942714e-005	-1.126400e-005	3.207547e-005	1.247533e-005	9.028607e-001	-1.920115e-003
746646.647	-8.787117e-001	2.099885e-001	-1.371453e-005	-1.944467e-005	4.528250e-005	-7.911653e-006	9.030387e-001	-1.883268e-003
756356.356	-8.782163e-001	2.113693e-001	-5.640381e-006	1.532196e-005	9.613292e-006	-1.975565e-005	9.034240e-001	-1.742447e-003
766066.066	-8.767823e-001	2.136365e-001	5.329837e-006	-1.915463e-005	5.578746e-005	1.945548e-005	9.027838e-001	-1.818084e-003
775775.776	-8.749960e-001	2.168177e-001	1.713089e-005	5.774112e-005	-4.865022e-005	2.821148e-005	9.036702e-001	-1.525439e-003
785485.485	-8.757408e-001	2.187842e-001	-2.100168e-005	-5.689540e-005	3.056139e-005	-3.203794e-005	9.033659e-001	-1.879119e-003
795195.195	-8.727244e-001	2.212186e-001	-2.035993e-005	-6.778756e-006	-1.258091e-005	-2.708915e-006	9.029994e-001	-1.926022e-003
804904.905	-8.718825e-001	2.223804e-001	2.515878e-005	-3.418586e-005	-1.139049e-006	1.330018e-005	9.034438e-001	-1.971173e-003
814614.615	-8.714508e-001	2.248844e-001	-8.025725e-006	1.361646e-005	-1.268351e-005	-2.598269e-005	9.034669e-001	-2.052375e-003
824324.324	-8.711305e-001	2.266374e-001	-4.060438e-005	-1.279777e-005	2.721705e-005	1.326849e-005	9.030241e-001	-2.012219e-003
834034.034	-8.694750e-001	2.282024e-001	-1.074456e-005	9.752434e-006	-1.634686e-005	-1.657762e-005	9.030709e-001	-2.329037e-003
843743.744	-8.683495e-001	2.303471e-001	-6.137487e-005	2.269780e-005	2.385942e-006	2.248621e-005	9.033094e-001	-2.192655e-003
853453.453	-8.672358e-001	2.330686e-001	-4.120831e-005	1.587550e-005	3.740457e-005	-4.326596e-005	9.034100e-001	-1.821734e-003
863163.163	-8.663968e-001	2.347943e-001	4.285890e-005	5.055190e-006	2.946814e-005	-1.926324e-005	9.032579e-001	-2.692160e-003
872872.873	-8.656724e-001	2.369873e-001	4.136304e-006	1.512034e-005	3.737734e-005	5.461517e-006	9.035513e-001	-1.431337e-003
882582.583	-8.651328e-001	2.381432e-001	-2.388617e-005	-1.645291e-005	8.535748e-006	1.148252e-005	9.031334e-001	-2.103734e-003
892292.292	-8.626678e-001	2.418581e-001	-4.964961e-005	1.330769e-005	-2.649548e-005	1.056192e-005	9.032359e-001	-2.911491e-003
902002.002	-8.623771e-001	2.423336e-001	2.778846e-005	-3.030675e-005	2.274643e-006	-4.269655e-005	9.032310e-001	-2.300723e-003
911711.712	-8.619513e-001	2.450972e-001	-2.064542e-005	2.157568e-005	-2.095191e-005	-1.243573e-005	9.028895e-001	-2.392929e-003
921421.421	-8.600870e-001	2.466533e-001	5.901022e-006	-2.910673e-005	1.813159e-005	4.853993e-005	9.027864e-001	-2.666501e-003
931131.131	-8.597577e-001	2.494003e-001	3.056020e-005	1.980277e-005	1.410601e-005	-4.287727e-006	9.026983e-001	-2.792204e-003
940840.841	-8.586255e-001	2.507443e-001	3.865554e-005	-1.097981e-005	-7.506558e-006	3.042394e-005	9.027540e-001	-3.165148e-003
950550.551	-8.568277e-001	2.528863e-001	-3.408929e-005	2.074566e-005	4.389874e-005	-2.851189e-005	9.029255e-001	-2.401240e-003
960260.260	-8.564188e-001	2.551713e-001	5.514607e-006	-5.763740e-006	-6.969526e-006	1.226440e-005	9.037146e-001	-2.582639e-003
969969.970	-8.546265e-001	2.569708e-001	-4.110417e-005	2.215995e-005	-4.788696e-006	7.982589e-006	9.033535e-001	-1.882145e-003
979679.680	-8.538572e-001	2.592364e-001	-8.661099e-006	-9.919113e-006	3.849138e-006	-1.650361e-005	9.028176e-001	-2.606346e-003
989389.389	-8.536265e-001	2.607145e-001	-4.086556e-005	3.830535e-005	-1.512618e-005	-5.940860e-005	9.031505e-001	-2.857349e-003
999099.099	-8.523204e-001	2.625187e-001	-4.671488e-006	1.539513e-005	2.652511e-005	-3.039226e-005	9.018428e-001	-2.765863e-003
1008808.809	-8.509958e-001	2.640220e-001	1.142597e-005	-4.087001e-005	-2.374982e-005	1.195089e-005	9.032207e-001	-3.032167e-003
1018518.519	-8.493475e-001	2.656750e-001	1.103197e-005	4.051427e-005	-3.346393e-005	3.617650e-005	9.027115e-001	-2.739278e-003
1028228.228	-8.485169e-001	2.680504e-001	3.306728e-005	-5.306997e-006	4.626560e-006	1.591354e-005	9.027308e-001	-2.413284e-003
1037937.938	-8.474829e-001	2.702371e-001	1.094308e-005	2.388065e-005	-2.692617e-005	6.337310e-005	9.026070e-001	-2.772582e-003
1047647.648	-8.458804e-001	2.725947e-001	2.385260e-005	-2.871746e-005	3.790976e-006	-5.326902e-005	9.032350e-001	-3.642891e-003
1057357.357	-8.455877e-001	2.743520e-001	-3.091490e-005	2.738044e-006	1.798156e-005	-2.078083e-005	9.035526e-001	-2.766340e-003
1067067.067	-8.444921e-001	2.766517e-001	-1.671391e-005	2.648104e-005	3.470435e-005	-2.516741e-005	9.030843e-001	-2.817754e-003
1076776.777	-8.438236e-001	2.780035e-001	-3.426964e-005	7.082043e-005	8.861393e-007	-3.371700e-005	9.022664e-001	-3.124391e-003
1086486.486	-8.426251e-001	2.807135e-001	1.474324e-005	-2.011429e-006	-2.726776e-005	-1.013290e-008	9.027372e-001	-2.493950e-003
1096196.196	-8.420543e-001	2.819385e-001	4.664945e-006	2.462322e-005	-3.340798e-005	-1.157535e-005	9.032914e-001	-3.690450e-003
1105905.906	-8.404025e-001	2.839894e-001	3.876198e-005	-2.985303e-005	-2.176191e-005	3.478399e-005	9.028495e-001	-3.556735e-003
1115615.616	-8.390552e-001	2.860929e-001	3.822680e-005	6.715534e-006	7.041073e-005	4.244752e-005	9.031055e-001	-3.150741e-003
1125325.325	-8.381627e-001	2.882429e-001	2.092284e-005	-3.027950e-005	-1.319201e-005	3.055584e-007	9.029255e-001	-2.904560e-003
1135035.035	-8.375880e-001	2.896831e-001	3.356927e-005	-1.408577e-005	8.336560e-005	-1.141343e-006	9.036859e-001	-3.235680e-003
1144744.745	-8.361838e-001	2.911911e-001	1.105318e-005	1.957763e-005	2.734690e-005	4.594799e-005	9.032963e-001	-1.849104e-003
1154454.454	-8.349710e-001	2.928275e-001	-9.136400e-007	1.547377e-006	3.795939e-005	-1.259516e-005	9.035667e-001	-2.777893e-003
1164164.164	-8.338224e-001	2.948662e-001	-2.062990e-005	-2.411254e-005	5.879909e-005	6.057068e-006	9.036006e-001	-3.245720e-003
1173873.874	-8.335258e-001	2.972000e-001	-1.974718e-005	5.276567e-005	2.772783e-005	-9.525541e-006	9.030773e-001	-3.221225e-003
1183583.584	-8.324746e-001	2.989273e-001	2.401457e-006	-7.051510e-005	-3.288867e-005	-1.663151e-005	9.031520e-001	-3.325842e-003
1193293.293	-8.298699e-001	3.007648e-001	1.825917e-005	1.767075e-005	2.994717e-005	1.674492e-005	9.031479e-001	-3.265546e-003
1203003.003	-8.294946e-001	3.021221e-001	3.468726e-005	-2.739864e-005	1.018490e-005	-7.549901e-006	9.027358e-001	-3.151422e-003
1212712.713	-8.288212e-001	3.040669e-001	-3.544524e-005	-2.517781e-005	9.304638e-006	6.647714e-008	9.025213e-001	-3.788383e-003
1222422.422	-8.272207e-001	3.057362e-001	-3.518336e-005	5.153337e-006	3.014443e-005	4.399715e-005	9.029695e-001	-3.993555e-003
1232132.132	-8.255894e-001	3.083039e-001	-4.732111e-006	3.644277e-005	2.206937e-005	-2.733508e-005	9.029329e-001	-3.434018e-003
1241841.842	-8.247332e-001	3.098542e-001	4.908647e-005	1.384254e-005	6.342009e-005	-1.238674e-005	9.033647e-001	-3.213158e-003
1251551.552	-8.240797e-001	3.112405e-001	-1.232394e-005	-1.799021e-005	1.398222e-005	-2.626877e-005	9.034699e-001	-4.209435e-003
1261261.261	-8.233535e-001	3.137564e-001	-1.277721e-005	5.632246e-007	-2.203500e-005	4.231655e-005	9.034474e-001	-4.101490e-003
1270970.971	-8.220513e-001	3.160276e-001	7.036266e-005	3.476703e-005	8.376893e-006	4.767312e-005	9.024358e-001	-3.207389e-003
1280680.681	-8.203815e-001	3.175141e-001	-1.304746e-005	1.814123e-005	-5.912957e-006	-2.121647e-005	9.028412e-001	-2.864175e-003
1290390.390	-8.206938e-001	3.191044e-001	-1.442995e-005	-1.378761e-005	-4.770263e-005	-6.053098e-005	9.031632e-001	-3.811987e-003
1300100.100	-8.186892e-001	3.204549e-001	6.306558e-006	-1.921395e-005	-3.104875e-005	-2.117293e-005	9.032988e-001	-4.004273e-003
1309809.810	-8.177790e-001	3.216114e-001	1.144662e-005	-5.041074e-006	1.468789e-005	-5.471922e-005	9.033572e-001	-3.533715e-003
1319519.520	-8.164337e-001	3.240521e-001	7.071775e-006	1.682655e-005	1.155633e-006	3.550638e-006	9.030889e-001	-3.526789e-003
1329229.229	-8.157986e-001	3.259040e-001	6.152111e-005	-1.646949e-005	-4.161290e-005	-6.568176e-006	9.033377e-001	-4.148544e-003
1338938.939	-8.147418e-001	3.283959e-001	-2.217286e-005	-2.878826e-005	-4.321716e-005	-4.505185e-005	9.038343e-001	-3.812026e-003
1348648.649	-8.141711e-001	3.306582e-001	-3.679824e-005	8.865329e-006	1.722058e-005	4.752059e-005	9.032727e-001	-3.797103e-003
1358358.358	-8.133296e-001	3.318363e-001	1.849512e-005	-9.009538e-006	5.115048e-005	-4.809229e-006	9.029772e-001	-4.164887e-003
1368068.068	-8.120512e-001	3.330859e-001	-4.055021e-006	-5.588017e-006	1.806812e-005	-5.524049e-005	9.036167e-001	-4.485169e-003
1377777.778	-8.099289e-001	3.346263e-001	1.716319e-005	9.319919e-007	6.564096e-006	-4.246246e-006	9.022602e-001	-4.167411e-003
1387487.487	-8.082732e-001	3.369286e-001	7.218188e-006	4.588099e-007	2.169188e-005	2.538109e-005	9.031160e-001	-4.594917e-003
1397197.197	-8.077932e-001	3.381033e-001	6.339507e-006	2.295302e-005	-2.810401e-005	1.130642e-005	9.028856e-001	-4.199049e-003
1406906.907	-8.073755e-001	3.405917e-001	-5.107900e-005	-2.265085e-005	-2.433325e-005	1.602946e-006	9.031930e-001	-4.413255e-003
1416616.617	-8.061614e-001	3.424090e-001	1.734877e-005	-1.018783e-005	2.896280e-005	-1.091671e-005	9.031116e-001	-4.122058e-003
1426326.326	-8.053167e-001	3.435356e-001	8.365842e-006	2.838946e-005	-1.281832e-006	-5.486650e-006	9.031622e-001	-4.795772e-003
1436036.036	-8.037596e-001	3.459339e-001	-1.069188e-005	-1.124884e-006	1.437382e-005	3.751738e-005	9.027400e-001	-4.818597e-003
1445745.746	-8.028192e-001	3.473392e-001	-1.039300e-005	-4.200392e-005	2.153763e-005	1.804863e-005	9.026424e-001	-4.322045e-003
1455455.455	-8.021636e-001	3.483543e-001	-9.311049e-006	-3.888017e-005	1.312304e-005	-2.210963e-005	9.033706e-001	-4.131903e-003
1465165.165	-8.002969e-001	3.499493e-001	-1.431146e-005	-8.633671e-006	8.908385e-005	1.179100e-005	9.028701e-001	-3.852184e-003
1474874.875	-7.990297e-001	3.522542e-001	-1.784647e-005	1.623234e-005	2.418266e-005	4.472990e-005	9.023299e-001	-4.332491e-003
1484584.585	-7.981614e-001	3.540485e-001	-2.943012e-005	-6.537642e-005	-1.038275e-005	1.522358e-005	9.036984e-001	-4.324320e-003
1494294.294	-7.974547e-001	3.561153e-001	-2.762176e-005	1.491449e-005	5.091109e-005	1.449049e-005	9.028298e-001	-4.533834e-003
1504004.004	-7.963982e-001	3.573767e-001	1.345156e-005	2.311937e-005	-5.859866e-005	-2.828533e-005	9.032330e-001	-4.709814e-003
1513713.714	-7.954301e-001	3.590107e-001	1.737095e-005	3.109256e-005	2.849468e-005	3.545189e-005	9.025043e-001	-4.347517e-003
1523423.423	-7.936971e-001	3.611017e-001	5.839617e-006	4.097757e-005	-3.617013e-005	1.338712e-005	9.028917e-001	-4.517513e-003
1533133.133	-7.930288e-001	3.628430e-001	-1.767834e-005	-5.473836e-005	-4.624687e-006	-1.163207e-005	9.032450e-001	-4.964355e-003
1542842.843	-7.929968e-001	3.638133e-001	6.241017e-005	-3.060103e-005	-1.797030e-005	4.547863e-006	9.027734e-001	-4.459379e-003
1552552.553	-7.912579e-001	3.664712e-001	-2.468635e-007	-1.030314e-005	-8.273282e-006	5.907637e-005	9.035219e-001	-4.403703e-003
1562262.262	-7.901178e-001	3.671339e-001	1.743205e-005	-5.183464e-006	-9.327546e-007	-3.587099e-005	9.035145e-001	-3.779228e-003
1571971.972	-7.887656e-001	3.688761e-001	-1.369935e-005	-1.219635e-005	-2.861231e-005	5.842935e-005	9.030434e-001	-5.058911e-003
1581681.682	-7.878355e-001	3.708998e-001	-6.252567e-006	2.011170e-005	-1.345992e-005	-8.745506e-006	9.033601e-001	-4.824345e-003
1591391.391	-7.860337e-001	3.728742e-001	1.336411e-005	-2.175360e-006	-8.048470e-006	4.788255e-005	9.027688e-001	-4.684193e-003
1601101.101	-7.854838e-001	3.742875e-001	-1.651526e-005	-5.906621e-007	7.039320e-006	3.915418e-005	9.033341e-001	-4.640761e-003
1610810.811	-7.841452e-001	3.764762e-001	4.663568e-005	-9.258835e-006	-5.277248e-005	-1.671031e-005	9.029356e-001	-5.386047e-003
1620520.521	-7.828952e-001	3.777263e-001	-1.251814e-005	-2.442862e-005	2.228598e-005	7.730295e-005	9.029931e-001	-5.125247e-003
1630230.230	-7.821305e-001	3.797707e-001	-2.351539e-006	3.870546e-005	-1.110281e-005	2.663801e-005	9.025954e-001	-4.921055e-003
1639939.940	-7.812926e-001	3.816160e-001	-2.846620e-005	-8.032673e-007	-8.991402e-007	-1.597816e-005	9.023859e-001	-4.742254e-003
1649649.650	-7.802437e-001	3.831566e-001	-2.750158e-005	3.141841e-006	-1.219730e-005	-2.933295e-006	9.029673e-001	-4.418930e-003
1659359.359	-7.784102e-001	3.842167e-001	-8.595297e-006	-3.546261e-005	-1.194793e-006	-3.972975e-005	9.028953e-001	-4.989612e-003
1669069.069	-7.771467e-001	3.861210e-001	2.134449e-005	1.324106e-006	-1.285428e-005	2.071419e-005	9.028970e-001	-4.977395e-003
1678778.779	-7.760143e-001	3.878553e-001	5.516297e-005	-2.065278e-005	1.539299e-005	-3.771786e-005	9.030720e-001	-4.643891e-003
1688488.488	-7.742545e-001	3.890419e-001	3.562262e-005	3.332844e-005	-5.233881e-005	-7.268985e-006	9.026638e-001	-5.428618e-003
1698198.198	-7.732532e-001	3.911170e-001	4.715178e-005	-2.598708e-005	-1.107689e-005	-7.348407e-006	9.028330e-001	-5.431825e-003
1707907.908	-7.721090e-001	3.923799e-001	-1.186570e-007	-1.776200e-005	-6.457888e-006	-1.385573e-005	9.030581e-001	-4.953548e-003
1717617.618	-7.710791e-001	3.940192e-001	1.437458e-005	-3.928682e-005	6.930036e-006	-5.259444e-006	9.028773e-001	-4.623878e-003
1727327.327	-7.705342e-001	3.964638e-001	-6.554292e-006	1.578962e-005	-1.934732e-005	-2.460834e-005	9.034530e-001	-5.452697e-003
1737037.037	-7.694450e-001	3.976071e-001	-2.741603e-005	2.366424e-005	3.461329e-005	1.413692e-005	9.039834e-001	-5.343029e-003
1746746.747	-7.680747e-001	3.998784e-001	-1.097095e-006	-2.898934e-005	1.838435e-005	-2.417291e-005	9.024879e-001	-4.649723e-003
1756456.456	-7.661388e-001	4.009751e-001	1.299836e-008	2.460230e-006	-2.304337e-005	1.073185e-005	9.032113e-001	-5.701076e-003
1766166.166	-7.657300e-001	4.022721e-001	-2.669266e-005	-1.700085e-005	-2.894755e-005	4.342151e-005	9.028950e-001	-4.809056e-003
1775875.876	-7.642411e-001	4.027522e-001	1.270576e-005	-1.621584e-005	-7.775789e-005	3.952405e-005	9.029922e-001	-5.152453e-003
1785585.586	-7.636949e-001	4.059342e-001	5.551481e-006	3.435200e-005	1.525230e-005	-3.299214e-005	9.024189e-001	-5.563299e-003
1795295.295	-7.625451e-001	4.077045e-001	-7.184144e-006	4.466377e-006	-1.660831e-005	4.398579e-005	9.027204e-001	-5.896988e-003
