!Keysight Technologies,E5061B,MY49709559,B.05.06
!Date: Fri Apr 08 00:54:59 2022
!Data & Calibration Information:
!Freq	S11:SOLT2(ON)	S21:SOLT2(ON)	S12:SOLT2(ON)	S22:SOLT2(ON)
# Hz S RI R 50
300000.000	-9.177901e-001	1.225449e-001	2.225094e-005	2.850285e-005	-1.032662e-005	-2.611423e-005	9.042348e-001	-8.424014e-004
309709.710	-9.174853e-001	1.262036e-001	-2.827271e-005	-3.082053e-005	-7.531346e-006	2.654121e-005	9.041443e-001	-9.689771e-004
319419.419	-9.164177e-001	1.298239e-001	-2.236013e-005	1.678498e-005	1.396583e-006	7.392798e-006	9.042262e-001	-6.339093e-004
329129.129	-9.140998e-001	1.331935e-001	-3.233848e-005	1.337992e-005	-1.847554e-005	5.865585e-007	9.037614e-001	-8.112903e-004
338838.839	-9.126700e-001	1.366232e-001	6.195749e-006	1.331418e-006	-6.032099e-005	-6.387728e-006	9.037330e-001	-8.780972e-004
348548.549	-9.122572e-001	1.386345e-001	1.439226e-006	-6.877733e-005	6.482203e-006	9.503871e-006	9.038252e-001	-7.171940e-004
358258.258	-9.107503e-001	1.425045e-001	-3.655844e-005	4.187665e-005	-1.390782e-005	2.441022e-005	9.039954e-001	-1.299376e-003
367967.968	-9.085802e-001	1.467204e-001	-2.066369e-005	4.205555e-005	-1.221898e-005	-7.876224e-006	9.031898e-001	-1.034525e-003
377677.678	-9.083244e-001	1.475258e-001	-1.065085e-005	2.784845e-005	7.923586e-006	1.730071e-005	9.040072e-001	-9.150908e-005
387387.387	-9.063082e-001	1.511861e-001	-4.778698e-006	-2.591497e-005	-3.833009e-005	-1.318291e-005	9.027737e-001	-1.206462e-003
397097.097	-9.059519e-001	1.562215e-001	-1.629410e-005	2.609532e-005	-1.408913e-005	-4.780034e-005	9.031207e-001	-7.036469e-004
406806.807	-9.043602e-001	1.586595e-001	3.542050e-006	3.332879e-006	-6.079221e-006	-3.085019e-005	9.033279e-001	-1.595875e-003
416516.517	-9.023379e-001	1.614926e-001	-7.419766e-006	-1.547911e-005	-3.973636e-005	6.611478e-005	9.038941e-001	-1.018885e-003
426226.226	-9.014060e-001	1.645057e-001	-1.598096e-005	-3.448082e-005	2.148643e-005	1.103937e-005	9.039862e-001	-8.208279e-004
435935.936	-9.006329e-001	1.672311e-001	3.212586e-005	9.079389e-006	4.060945e-005	2.426191e-006	9.033997e-001	-8.394921e-004
445645.646	-8.984579e-001	1.705019e-001	-2.367563e-005	2.841140e-005	9.097319e-006	4.376314e-005	9.036756e-001	-1.075155e-003
455355.355	-8.967058e-001	1.741846e-001	-4.304811e-005	4.143870e-005	-2.528090e-005	-1.804155e-005	9.024825e-001	-9.250620e-004
465065.065	-8.954825e-001	1.772148e-001	2.423396e-005	-6.515947e-005	3.598681e-005	-3.299282e-005	9.029120e-001	-9.992733e-004
474774.775	-8.937629e-001	1.797117e-001	8.586725e-006	2.814572e-005	3.155163e-005	-3.503748e-005	9.033275e-001	-1.888511e-003
484484.484	-8.928753e-001	1.825271e-001	1.550781e-005	9.223344e-006	1.424705e-005	3.732161e-005	9.033181e-001	-9.584134e-004
494194.194	-8.916533e-001	1.853989e-001	-2.105576e-005	4.917399e-005	1.776875e-005	-2.047420e-006	9.034712e-001	-1.195856e-003
503903.904	-8.903099e-001	1.885428e-001	1.844111e-005	4.243249e-005	4.627430e-005	4.412894e-005	9.033618e-001	-1.015392e-003
513613.614	-8.892325e-001	1.910197e-001	2.966261e-005	-7.325569e-005	-1.634385e-005	3.970488e-005	9.031920e-001	-1.233877e-003
523323.323	-8.874659e-001	1.941162e-001	8.654367e-006	-1.855357e-005	1.743566e-005	-3.391212e-005	9.026377e-001	-1.927914e-003
533033.033	-8.877900e-001	1.976293e-001	1.042572e-005	7.010002e-006	-2.663744e-005	5.740927e-005	9.038427e-001	-9.714531e-004
542742.743	-8.861657e-001	1.994105e-001	-4.164293e-005	9.896355e-006	2.033467e-005	-6.419939e-008	9.037641e-001	-1.406473e-003
552452.452	-8.842560e-001	2.023423e-001	-1.248584e-005	-3.312552e-005	-3.913657e-005	3.596000e-006	9.029452e-001	-1.938671e-003
562162.162	-8.826605e-001	2.052677e-001	-4.869993e-005	-1.377665e-005	9.952230e-007	2.230613e-005	9.028484e-001	-1.914379e-003
571871.872	-8.815911e-001	2.075368e-001	-3.662201e-006	5.374834e-005	-6.914011e-006	2.137544e-005	9.034886e-001	-1.667678e-003
581581.582	-8.804593e-001	2.098204e-001	8.628003e-006	4.435107e-005	3.932395e-007	5.679974e-005	9.034123e-001	-1.421962e-003
591291.291	-8.781104e-001	2.138382e-001	-2.412656e-005	-1.873061e-005	-3.854340e-005	2.809276e-005	9.033584e-001	-2.045107e-003
601001.001	-8.771630e-001	2.160786e-001	1.310540e-005	2.295558e-005	1.269561e-005	-4.111763e-006	9.028960e-001	-1.105341e-003
610710.711	-8.760931e-001	2.184966e-001	-5.638695e-006	2.744010e-005	-1.583497e-005	4.006182e-005	9.031278e-001	-1.797591e-003
620420.420	-8.748306e-001	2.209869e-001	-5.180188e-006	1.237006e-005	-4.037105e-005	4.074366e-005	9.020196e-001	-1.456225e-003
630130.130	-8.737689e-001	2.241248e-001	4.258256e-006	1.266354e-005	-1.195390e-005	2.768504e-006	9.028207e-001	-1.999213e-003
639839.840	-8.728988e-001	2.268570e-001	2.909165e-005	-4.269573e-005	-2.497687e-006	6.576035e-006	9.028054e-001	-1.707874e-003
649549.550	-8.703164e-001	2.284486e-001	-4.025379e-005	-2.937143e-005	5.007253e-005	4.804000e-005	9.031338e-001	-2.363500e-003
659259.259	-8.679488e-001	2.313114e-001	2.175264e-005	2.299753e-005	-6.256594e-007	1.536123e-005	9.032057e-001	-2.409919e-003
668968.969	-8.680914e-001	2.341343e-001	-4.554157e-005	-2.825233e-005	-2.329946e-006	-1.302686e-005	9.030480e-001	-1.788058e-003
678678.679	-8.667169e-001	2.371529e-001	-9.368929e-007	-4.547625e-005	-6.225356e-006	-1.332277e-005	9.033763e-001	-1.968043e-003
688388.388	-8.648888e-001	2.393501e-001	-5.301993e-006	-3.270091e-005	-1.476829e-005	-3.252040e-005	9.031516e-001	-1.908917e-003
698098.098	-8.638512e-001	2.422744e-001	1.997602e-005	-1.291224e-005	1.686496e-005	-1.497290e-006	9.033089e-001	-1.627206e-003
707807.808	-8.626152e-001	2.446294e-001	2.746076e-005	-6.045317e-006	-3.243336e-005	5.244871e-005	9.031100e-001	-2.088133e-003
717517.518	-8.608040e-001	2.471862e-001	-1.697501e-005	-2.810246e-005	-3.322989e-005	1.992784e-005	9.032169e-001	-2.794670e-003
727227.227	-8.600860e-001	2.495373e-001	-3.058409e-005	-1.667323e-005	-2.977122e-005	-1.550690e-006	9.029467e-001	-1.664145e-003
736936.937	-8.584906e-001	2.521354e-001	1.179190e-005	4.805121e-006	-1.327529e-005	-4.595075e-005	9.035756e-001	-1.320976e-003
746646.647	-8.568977e-001	2.543084e-001	-2.094545e-005	2.170982e-005	-1.438061e-006	-3.946383e-005	9.028809e-001	-2.023224e-003
756356.356	-8.558430e-001	2.565975e-001	-2.484795e-005	-1.259461e-005	8.494977e-007	-4.099596e-005	9.032116e-001	-2.072198e-003
766066.066	-8.547143e-001	2.593530e-001	1.667431e-005	3.171814e-005	-3.290765e-005	1.135754e-005	9.033395e-001	-2.772515e-003
775775.776	-8.525113e-001	2.629672e-001	3.191589e-006	-1.045030e-005	-5.402839e-006	6.305594e-005	9.032998e-001	-1.419368e-003
785485.485	-8.525651e-001	2.651138e-001	-5.115538e-005	-3.062391e-005	6.254532e-005	-8.534276e-006	9.032400e-001	-2.339009e-003
795195.195	-8.502900e-001	2.679684e-001	-1.146047e-005	3.517425e-005	-2.977815e-005	-1.480643e-005	9.037513e-001	-2.477152e-003
804904.905	-8.487904e-001	2.697360e-001	-1.444244e-005	1.405006e-005	-1.136534e-005	-1.034558e-005	9.028215e-001	-1.989142e-003
814614.615	-8.475067e-001	2.717781e-001	-1.022536e-005	1.587440e-005	-8.918476e-006	-1.076856e-005	9.034265e-001	-2.124792e-003
824324.324	-8.462793e-001	2.743282e-001	2.038137e-005	-3.927218e-005	1.329268e-005	2.368929e-005	9.030678e-001	-2.651400e-003
834034.034	-8.452260e-001	2.768828e-001	6.974147e-006	-3.322224e-005	1.034704e-005	-2.427583e-005	9.034818e-001	-2.449097e-003
843743.744	-8.435581e-001	2.787051e-001	-3.605751e-005	-1.112762e-005	2.739040e-005	-8.955838e-006	9.034274e-001	-2.724752e-003
853453.453	-8.423025e-001	2.817098e-001	-1.472717e-005	2.456682e-006	2.562794e-005	-3.805315e-006	9.033491e-001	-1.905997e-003
863163.163	-8.408304e-001	2.839348e-001	2.160007e-005	1.510394e-005	-8.700404e-005	8.644232e-006	9.030543e-001	-2.321816e-003
872872.873	-8.389640e-001	2.862050e-001	-3.406617e-005	-1.937919e-005	-1.634848e-005	3.876394e-005	9.032224e-001	-1.645602e-003
882582.583	-8.390883e-001	2.883455e-001	-9.007439e-006	-2.987522e-005	-8.854455e-006	1.753266e-005	9.031087e-001	-1.641804e-003
892292.292	-8.365261e-001	2.917443e-001	-4.996192e-005	-3.170455e-005	9.476250e-006	-1.441713e-005	9.029858e-001	-2.695260e-003
902002.002	-8.355346e-001	2.934867e-001	-2.878733e-005	-6.391755e-005	3.681675e-005	1.269816e-005	9.032807e-001	-2.605789e-003
911711.712	-8.345439e-001	2.963996e-001	5.752487e-005	3.892988e-005	-3.338563e-005	4.895247e-005	9.025971e-001	-2.379673e-003
921421.421	-8.325709e-001	2.985429e-001	1.305522e-005	-1.286964e-005	-3.941204e-006	-2.594283e-005	9.027501e-001	-2.645421e-003
931131.131	-8.314266e-001	3.010431e-001	-3.980324e-005	-2.691905e-005	2.693914e-005	4.440971e-005	9.028856e-001	-2.818138e-003
940840.841	-8.298746e-001	3.033254e-001	-5.684700e-005	-1.376776e-005	3.679649e-005	-1.287075e-005	9.032563e-001	-2.759599e-003
950550.551	-8.283207e-001	3.055439e-001	-5.231357e-006	4.182817e-005	-2.785598e-005	-4.069467e-005	9.029517e-001	-3.144919e-003
960260.260	-8.271992e-001	3.076699e-001	2.888445e-005	1.445694e-005	2.033145e-005	-2.402859e-005	9.029896e-001	-2.910475e-003
969969.970	-8.257410e-001	3.107080e-001	-2.535587e-005	1.797792e-007	2.615116e-005	-1.473707e-005	9.034628e-001	-2.714405e-003
979679.680	-8.242145e-001	3.128331e-001	-1.213760e-005	6.209168e-006	-7.197278e-007	4.451165e-005	9.026610e-001	-2.340927e-003
989389.389	-8.235997e-001	3.156972e-001	-1.698097e-005	9.046331e-008	-3.363616e-005	-3.338579e-006	9.025800e-001	-1.985239e-003
999099.099	-8.223406e-001	3.167229e-001	2.044787e-005	-1.875999e-005	-2.508624e-005	2.313959e-005	9.028392e-001	-2.722851e-003
1008808.809	-8.201513e-001	3.182205e-001	-1.838424e-005	4.048062e-005	4.375730e-005	2.464753e-005	9.030291e-001	-3.032065e-003
1018518.519	-8.190782e-001	3.205919e-001	2.195510e-005	-4.049709e-005	-1.379385e-005	-7.883213e-006	9.031663e-001	-2.578627e-003
1028228.228	-8.179001e-001	3.241370e-001	6.485034e-006	-9.415723e-006	1.436215e-006	-2.198418e-005	9.027036e-001	-2.604038e-003
1037937.938	-8.161735e-001	3.261757e-001	-1.092917e-005	2.011801e-005	3.882455e-005	4.112267e-007	9.029590e-001	-2.823943e-003
1047647.648	-8.141425e-001	3.286956e-001	-5.995779e-005	1.650458e-005	-2.136972e-005	2.054391e-005	9.026480e-001	-3.375484e-003
1057357.357	-8.133815e-001	3.306681e-001	3.807452e-005	-1.343561e-006	4.073802e-005	4.212566e-005	9.033111e-001	-3.405145e-003
1067067.067	-8.126797e-001	3.328584e-001	6.398693e-006	-1.513529e-005	-1.161053e-005	1.466337e-007	9.027218e-001	-2.723181e-003
1076776.777	-8.105914e-001	3.355632e-001	1.142238e-005	-6.912331e-006	1.484650e-006	1.514411e-005	9.032127e-001	-2.979424e-003
1086486.486	-8.088423e-001	3.380024e-001	1.405709e-005	-2.858094e-005	-3.476621e-005	5.689058e-006	9.030807e-001	-2.738360e-003
1096196.196	-8.080157e-001	3.403249e-001	-2.989402e-005	-9.536316e-006	3.582397e-005	-4.146308e-005	9.030732e-001	-2.972392e-003
1105905.906	-8.063960e-001	3.422208e-001	1.692883e-005	-8.386830e-006	1.979030e-005	-4.042925e-006	9.028632e-001	-3.602380e-003
1115615.616	-8.046546e-001	3.442824e-001	-3.962936e-005	-6.018571e-006	2.950533e-005	-1.439110e-005	9.030298e-001	-3.153577e-003
1125325.325	-8.033787e-001	3.470090e-001	2.331734e-005	-2.609989e-005	1.965153e-006	1.410584e-005	9.027009e-001	-3.025043e-003
1135035.035	-8.023086e-001	3.494266e-001	-1.242028e-005	5.004664e-006	1.905973e-005	-5.728423e-005	9.031509e-001	-3.064727e-003
1144744.745	-8.005743e-001	3.506658e-001	3.972715e-006	-8.463691e-006	-3.502962e-005	1.144728e-005	9.031084e-001	-2.819523e-003
1154454.454	-7.994206e-001	3.522855e-001	3.882800e-006	2.915706e-005	-2.425021e-005	7.661996e-006	9.028755e-001	-2.817014e-003
1164164.164	-7.977545e-001	3.546763e-001	2.356122e-005	2.812499e-005	-1.441197e-006	-1.940364e-005	9.029415e-001	-3.595925e-003
1173873.874	-7.967062e-001	3.576335e-001	-1.139399e-005	1.810073e-005	3.124998e-005	-3.604447e-005	9.029074e-001	-3.096969e-003
1183583.584	-7.952343e-001	3.599496e-001	3.840178e-005	-3.053425e-005	-3.633869e-005	1.859206e-005	9.036746e-001	-3.392207e-003
1193293.293	-7.935226e-001	3.620787e-001	-4.481328e-005	4.078768e-005	3.572158e-005	3.733903e-005	9.030041e-001	-3.679494e-003
1203003.003	-7.920835e-001	3.628304e-001	1.266198e-005	-2.916111e-005	5.273029e-005	1.266765e-006	9.027231e-001	-3.846551e-003
1212712.713	-7.902849e-001	3.654527e-001	3.113844e-005	7.186218e-006	-1.322662e-005	-1.309158e-005	9.027658e-001	-2.948268e-003
1222422.422	-7.891538e-001	3.680112e-001	-3.272848e-005	1.258610e-005	-5.206501e-006	2.179478e-005	9.028996e-001	-3.374472e-003
1232132.132	-7.874413e-001	3.703941e-001	-1.820211e-005	-2.402532e-005	1.784659e-005	4.863234e-005	9.028274e-001	-3.606321e-003
1241841.842	-7.862045e-001	3.722933e-001	-1.079581e-005	-2.849811e-006	1.917069e-005	-2.204083e-005	9.032138e-001	-3.941891e-003
1251551.552	-7.856316e-001	3.744789e-001	-2.415834e-006	-4.223697e-005	-3.497471e-005	-3.313308e-005	9.034174e-001	-4.149541e-003
1261261.261	-7.843846e-001	3.766422e-001	-9.554308e-006	8.524693e-006	-3.090100e-005	-2.153190e-005	9.030840e-001	-4.830695e-003
1270970.971	-7.821911e-001	3.796848e-001	2.094193e-005	-9.907586e-006	-2.235539e-005	-1.034581e-005	9.033792e-001	-3.299248e-003
1280680.681	-7.800957e-001	3.809658e-001	-1.060843e-005	3.750627e-005	-5.613368e-006	1.527547e-005	9.030411e-001	-2.534540e-003
1290390.390	-7.794222e-001	3.835141e-001	-5.195281e-006	2.104782e-005	-1.120419e-005	-5.475919e-005	9.033285e-001	-3.848698e-003
1300100.100	-7.774114e-001	3.852155e-001	4.113651e-005	2.266988e-005	3.823070e-005	1.070265e-005	9.033355e-001	-3.547975e-003
1309809.810	-7.757127e-001	3.867762e-001	2.875838e-005	1.895934e-005	2.500176e-005	8.232106e-006	9.029895e-001	-4.194671e-003
1319519.520	-7.745402e-001	3.893104e-001	-1.738975e-005	1.385397e-005	2.337301e-005	-2.666159e-005	9.025239e-001	-3.673666e-003
1329229.229	-7.734805e-001	3.914553e-001	-5.137112e-006	3.207720e-005	2.023987e-005	-2.182908e-005	9.029362e-001	-4.059013e-003
1338938.939	-7.718984e-001	3.938350e-001	2.375609e-006	8.418119e-006	1.761125e-005	1.583250e-006	9.041408e-001	-4.085209e-003
1348648.649	-7.705252e-001	3.966553e-001	-3.022482e-005	2.556310e-005	4.986271e-006	1.617443e-005	9.030646e-001	-4.071076e-003
1358358.358	-7.698254e-001	3.977984e-001	2.084000e-005	-3.394184e-005	4.318408e-005	4.242229e-005	9.024458e-001	-3.756495e-003
1368068.068	-7.678498e-001	3.996635e-001	-3.339438e-005	-3.234025e-005	1.754349e-005	4.603551e-005	9.030752e-001	-4.290624e-003
1377777.778	-7.662298e-001	4.014240e-001	4.365819e-005	3.810356e-006	-6.864532e-006	-1.348564e-005	9.025499e-001	-3.937079e-003
1387487.487	-7.640955e-001	4.035449e-001	1.599887e-005	2.354261e-005	1.657904e-005	-1.529460e-005	9.023616e-001	-4.324495e-003
1397197.197	-7.632697e-001	4.047025e-001	-2.273796e-005	3.484597e-005	-5.185484e-006	1.354515e-005	9.031122e-001	-4.700909e-003
1406906.907	-7.617569e-001	4.081316e-001	-4.190377e-005	-4.844253e-005	2.003740e-005	-3.274597e-005	9.029765e-001	-3.999654e-003
1416616.617	-7.606116e-001	4.093370e-001	9.782315e-007	1.463303e-005	-2.099638e-005	8.565457e-006	9.029212e-001	-3.481346e-003
1426326.326	-7.587990e-001	4.112843e-001	-2.975515e-005	1.138450e-005	-4.135067e-005	9.676118e-006	9.032087e-001	-4.830797e-003
1436036.036	-7.576029e-001	4.138746e-001	-1.648901e-005	-1.082105e-005	4.424280e-006	-2.632546e-005	9.038429e-001	-4.512291e-003
1445745.746	-7.563997e-001	4.153270e-001	9.491973e-007	-1.740413e-005	-3.506737e-005	-6.038143e-005	9.027304e-001	-4.213967e-003
1455455.455	-7.549737e-001	4.171877e-001	3.169205e-006	2.411231e-006	2.659099e-005	-1.631737e-005	9.031124e-001	-4.263796e-003
1465165.165	-7.529560e-001	4.189136e-001	-2.076892e-005	1.165137e-006	5.110681e-005	-1.833316e-005	9.030614e-001	-4.250930e-003
1474874.875	-7.509669e-001	4.220317e-001	1.820950e-006	-2.181222e-005	-2.495208e-005	3.147409e-005	9.025597e-001	-3.998696e-003
1484584.585	-7.501397e-001	4.235948e-001	-3.074254e-005	-3.546655e-005	-1.326848e-005	-2.347959e-005	9.032681e-001	-4.337552e-003
1494294.294	-7.482589e-001	4.255458e-001	2.709489e-006	-9.319247e-007	7.507127e-006	3.795573e-005	9.031617e-001	-4.203133e-003
1504004.004	-7.471538e-001	4.276053e-001	-6.204887e-006	-4.820491e-005	5.609069e-006	7.720672e-006	9.030529e-001	-4.541738e-003
1513713.714	-7.458418e-001	4.292894e-001	6.093461e-006	-1.664303e-005	1.921312e-005	-2.355672e-005	9.029628e-001	-4.585693e-003
1523423.423	-7.440590e-001	4.317064e-001	-8.942759e-006	2.674390e-005	1.118880e-005	1.937030e-005	9.027471e-001	-4.575082e-003
1533133.133	-7.425935e-001	4.332827e-001	2.274976e-006	1.404238e-005	4.713644e-005	1.683738e-005	9.026169e-001	-4.784206e-003
1542842.843	-7.414309e-001	4.353834e-001	1.471281e-006	-6.921183e-006	-6.786071e-006	-3.391483e-005	9.029235e-001	-4.261542e-003
1552552.553	-7.396176e-001	4.371074e-001	-2.393052e-006	-4.471189e-005	2.315428e-005	-1.490282e-006	9.029733e-001	-4.560341e-003
1562262.262	-7.386321e-001	4.382773e-001	9.740455e-006	-1.744426e-005	4.475865e-005	2.659298e-005	9.030117e-001	-4.747623e-003
1571971.972	-7.368720e-001	4.410375e-001	3.390640e-005	-3.458549e-006	-4.724132e-006	6.967501e-006	9.031111e-001	-4.838964e-003
1581681.682	-7.358353e-001	4.428557e-001	-4.526702e-006	-2.635975e-006	1.264270e-005	-3.146598e-005	9.032467e-001	-4.661762e-003
1591391.391	-7.342208e-001	4.446389e-001	-3.359516e-006	-1.399170e-006	-2.112758e-007	-9.540535e-006	9.033039e-001	-4.857787e-003
1601101.101	-7.322601e-001	4.468159e-001	2.181605e-005	-3.856423e-005	-1.415643e-005	-4.383269e-006	9.029918e-001	-5.354698e-003
1610810.811	-7.310503e-001	4.487815e-001	-2.354819e-005	1.091262e-005	2.587372e-005	1.685092e-005	9.031267e-001	-5.152707e-003
1620520.521	-7.288749e-001	4.504031e-001	-4.669213e-005	2.211741e-005	-6.827160e-006	1.471859e-005	9.032710e-001	-5.085167e-003
1630230.230	-7.274709e-001	4.522968e-001	-3.462271e-005	6.065803e-005	2.756722e-005	-1.811837e-005	9.026033e-001	-4.755368e-003
1639939.940	-7.260761e-001	4.546611e-001	1.457222e-006	-1.665832e-005	1.903052e-005	-1.688154e-005	9.033963e-001	-4.757898e-003
1649649.650	-7.245022e-001	4.566913e-001	-7.327897e-005	1.669932e-005	-2.388071e-005	-1.328698e-006	9.033056e-001	-5.246158e-003
1659359.359	-7.226230e-001	4.581477e-001	-8.852930e-006	9.814164e-006	-5.167592e-006	-2.879800e-005	9.032183e-001	-4.997862e-003
1669069.069	-7.216220e-001	4.599015e-001	2.616862e-005	1.688104e-006	-1.965493e-005	2.186632e-005	9.032482e-001	-4.782126e-003
1678778.779	-7.193684e-001	4.619778e-001	4.242429e-005	-1.415202e-005	1.169219e-005	1.119088e-005	9.034218e-001	-5.105749e-003
1688488.488	-7.185724e-001	4.633647e-001	2.630062e-005	-2.118072e-005	7.645803e-006	-4.381953e-006	9.030243e-001	-4.813223e-003
1698198.198	-7.163396e-001	4.652693e-001	-5.294806e-005	1.133213e-005	1.570323e-005	4.522672e-005	9.029524e-001	-4.968395e-003
1707907.908	-7.150197e-001	4.672977e-001	5.046004e-006	3.230216e-006	-3.135737e-005	1.735637e-006	9.031766e-001	-4.858558e-003
1717617.618	-7.133254e-001	4.690075e-001	-2.628588e-005	-1.152838e-005	1.972040e-005	-3.739444e-006	9.035050e-001	-4.601513e-003
1727327.327	-7.125120e-001	4.714184e-001	-2.868487e-005	4.436150e-005	1.903880e-006	-7.572064e-005	9.030354e-001	-5.555207e-003
1737037.037	-7.113585e-001	4.731275e-001	-4.564758e-005	1.918293e-005	1.260379e-005	1.838897e-005	9.036282e-001	-5.339819e-003
1746746.747	-7.088171e-001	4.751119e-001	1.520398e-005	7.757912e-006	-1.883969e-005	-3.553684e-005	9.032127e-001	-4.715722e-003
1756456.456	-7.069659e-001	4.761060e-001	-3.436932e-006	1.407507e-005	2.865654e-005	-2.950633e-005	9.024781e-001	-5.026490e-003
1766166.166	-7.057837e-001	4.777846e-001	-2.533649e-005	-2.661197e-005	4.551766e-006	2.084588e-005	9.035593e-001	-4.642121e-003
1775875.876	-7.045911e-001	4.789680e-001	1.927266e-005	9.846023e-007	2.286963e-005	1.276099e-005	9.032082e-001	-4.709270e-003
1785585.586	-7.032807e-001	4.818909e-001	1.152375e-005	3.310035e-005	4.676839e-006	-3.191459e-005	9.025756e-001	-4.596446e-003
1795295.295	-7.016109e-001	4.836114e-001	3.080529e-005	9.829169e-006	6.380946e-006	1.738787e-005	9.027378e-001	-5.903257e-003
