!Keysight Technologies,E5061B,MY49709559,B.05.06
!Date: Fri Apr 08 00:57:08 2022
!Data & Calibration Information:
!Freq	S11:SOLT2(ON)	S21:SOLT2(ON)	S12:SOLT2(ON)	S22:SOLT2(ON)
# Hz S RI R 50
300000.000	8.552534e-001	2.286383e-001	4.588331e-001	5.563691e-002	4.576579e-001	5.594622e-002	-8.777587e-001	2.200035e-002
309709.710	8.575102e-001	2.205332e-001	4.595531e-001	5.375443e-002	4.587248e-001	5.438201e-002	-8.779324e-001	2.108309e-002
319419.419	8.585108e-001	2.130605e-001	4.598053e-001	5.170110e-002	4.595329e-001	5.231872e-002	-8.783818e-001	2.079344e-002
329129.129	8.601380e-001	2.062291e-001	4.602599e-001	4.969216e-002	4.601883e-001	5.036259e-002	-8.785304e-001	2.161241e-002
338838.839	8.613431e-001	2.009955e-001	4.604354e-001	4.842106e-002	4.604847e-001	4.868082e-002	-8.778901e-001	2.095416e-002
348548.549	8.635546e-001	1.950992e-001	4.609625e-001	4.700165e-002	4.609230e-001	4.685658e-002	-8.781417e-001	2.158389e-002
358258.258	8.633283e-001	1.884994e-001	4.609090e-001	4.516454e-002	4.615215e-001	4.584770e-002	-8.778817e-001	2.019661e-002
367967.968	8.655095e-001	1.831076e-001	4.619061e-001	4.406515e-002	4.620639e-001	4.449408e-002	-8.780389e-001	2.051060e-002
377677.678	8.663647e-001	1.780473e-001	4.617125e-001	4.264613e-002	4.623925e-001	4.245447e-002	-8.779831e-001	2.078296e-002
387387.387	8.683067e-001	1.726503e-001	4.630368e-001	4.141640e-002	4.629025e-001	4.214976e-002	-8.782725e-001	1.991085e-002
397097.097	8.677154e-001	1.684954e-001	4.623719e-001	4.020967e-002	4.624878e-001	4.015758e-002	-8.763210e-001	2.003977e-002
406806.807	8.687931e-001	1.635095e-001	4.625600e-001	3.917260e-002	4.635577e-001	3.930160e-002	-8.772175e-001	1.953266e-002
416516.517	8.695610e-001	1.588346e-001	4.627809e-001	3.774717e-002	4.632992e-001	3.840805e-002	-8.771413e-001	2.029332e-002
426226.226	8.699968e-001	1.557110e-001	4.627149e-001	3.695376e-002	4.633801e-001	3.715939e-002	-8.772928e-001	2.000356e-002
435935.936	8.705536e-001	1.511505e-001	4.629333e-001	3.607410e-002	4.634578e-001	3.536747e-002	-8.760077e-001	2.081374e-002
445645.646	8.714070e-001	1.470851e-001	4.630070e-001	3.499420e-002	4.648066e-001	3.504478e-002	-8.772340e-001	1.987520e-002
455355.355	8.724995e-001	1.436133e-001	4.634640e-001	3.367670e-002	4.640713e-001	3.414303e-002	-8.756725e-001	1.943531e-002
465065.065	8.727708e-001	1.405458e-001	4.635591e-001	3.306579e-002	4.646459e-001	3.316271e-002	-8.769226e-001	1.952887e-002
474774.775	8.725932e-001	1.371508e-001	4.634066e-001	3.225696e-002	4.639752e-001	3.207120e-002	-8.769541e-001	2.042292e-002
484484.484	8.740895e-001	1.342248e-001	4.642989e-001	3.122503e-002	4.647688e-001	3.123000e-002	-8.781013e-001	1.961184e-002
494194.194	8.742162e-001	1.304584e-001	4.640494e-001	3.073132e-002	4.644452e-001	3.077493e-002	-8.771676e-001	1.910660e-002
503903.904	8.751879e-001	1.269632e-001	4.642712e-001	2.942267e-002	4.650971e-001	2.960080e-002	-8.777769e-001	1.947910e-002
513613.614	8.756263e-001	1.243300e-001	4.645530e-001	2.874451e-002	4.652472e-001	2.855529e-002	-8.771523e-001	1.968479e-002
523323.323	8.760201e-001	1.212663e-001	4.644848e-001	2.790513e-002	4.653121e-001	2.749538e-002	-8.769728e-001	2.051725e-002
533033.033	8.755191e-001	1.185567e-001	4.642918e-001	2.749601e-002	4.654619e-001	2.703085e-002	-8.770377e-001	2.022801e-002
542742.743	8.755919e-001	1.159744e-001	4.646499e-001	2.687599e-002	4.652398e-001	2.628731e-002	-8.769262e-001	1.964308e-002
552452.452	8.764846e-001	1.127370e-001	4.647710e-001	2.559737e-002	4.659311e-001	2.651856e-002	-8.772751e-001	1.896224e-002
562162.162	8.762893e-001	1.105739e-001	4.646721e-001	2.529290e-002	4.658614e-001	2.546803e-002	-8.770036e-001	1.912182e-002
571871.872	8.770922e-001	1.083931e-001	4.650795e-001	2.454424e-002	4.656214e-001	2.522509e-002	-8.768714e-001	1.864530e-002
581581.582	8.780223e-001	1.064315e-001	4.651910e-001	2.392933e-002	4.658401e-001	2.387466e-002	-8.776921e-001	1.942019e-002
591291.291	8.782159e-001	1.036147e-001	4.652030e-001	2.314500e-002	4.656935e-001	2.308517e-002	-8.763275e-001	1.994855e-002
601001.001	8.776060e-001	1.009016e-001	4.650139e-001	2.238633e-002	4.656917e-001	2.237090e-002	-8.769198e-001	2.109225e-002
610710.711	8.778418e-001	9.918891e-002	4.653937e-001	2.189285e-002	4.661792e-001	2.178726e-002	-8.768505e-001	2.066638e-002
620420.420	8.784165e-001	9.709422e-002	4.656131e-001	2.105662e-002	4.663720e-001	2.191027e-002	-8.765291e-001	1.958727e-002
630130.130	8.784069e-001	9.478587e-002	4.653699e-001	2.050998e-002	4.659611e-001	2.085023e-002	-8.765266e-001	2.072003e-002
639839.840	8.786386e-001	9.329786e-002	4.655133e-001	2.054469e-002	4.659510e-001	2.014390e-002	-8.763353e-001	2.101784e-002
649549.550	8.791134e-001	9.113810e-002	4.658168e-001	1.988816e-002	4.664851e-001	1.987176e-002	-8.763850e-001	2.071196e-002
659259.259	8.797167e-001	8.924765e-002	4.658224e-001	1.932312e-002	4.661530e-001	1.900160e-002	-8.759306e-001	2.100452e-002
668968.969	8.794881e-001	8.696955e-002	4.657453e-001	1.861595e-002	4.661615e-001	1.859475e-002	-8.764488e-001	2.060254e-002
678678.679	8.792728e-001	8.546205e-002	4.659638e-001	1.847948e-002	4.660324e-001	1.786237e-002	-8.768887e-001	2.104986e-002
688388.388	8.796752e-001	8.394334e-002	4.658519e-001	1.765936e-002	4.665253e-001	1.771794e-002	-8.772792e-001	2.006240e-002
698098.098	8.798857e-001	8.169568e-002	4.660196e-001	1.708157e-002	4.662576e-001	1.730066e-002	-8.764400e-001	2.043673e-002
707807.808	8.794884e-001	7.999761e-002	4.652064e-001	1.675527e-002	4.659523e-001	1.656354e-002	-8.754150e-001	2.186804e-002
717517.518	8.800795e-001	7.888494e-002	4.656266e-001	1.665735e-002	4.658004e-001	1.606553e-002	-8.763629e-001	2.131155e-002
727227.227	8.802742e-001	7.725744e-002	4.659893e-001	1.587491e-002	4.665363e-001	1.549721e-002	-8.763559e-001	2.125446e-002
736936.937	8.799360e-001	7.611984e-002	4.659519e-001	1.604529e-002	4.665311e-001	1.531116e-002	-8.768316e-001	2.178729e-002
746646.647	8.798496e-001	7.423338e-002	4.658435e-001	1.542452e-002	4.662826e-001	1.503828e-002	-8.755885e-001	2.115560e-002
756356.356	8.804120e-001	7.203466e-002	4.657369e-001	1.457026e-002	4.669616e-001	1.471558e-002	-8.762134e-001	2.043185e-002
766066.066	8.807732e-001	7.116999e-002	4.662768e-001	1.397035e-002	4.670323e-001	1.413168e-002	-8.764976e-001	2.109899e-002
775775.776	8.798164e-001	6.933827e-002	4.657449e-001	1.363401e-002	4.665844e-001	1.383672e-002	-8.761080e-001	2.049149e-002
785485.485	8.801842e-001	6.763688e-002	4.658840e-001	1.329235e-002	4.668757e-001	1.364130e-002	-8.758437e-001	2.113464e-002
795195.195	8.810115e-001	6.689310e-002	4.664001e-001	1.329329e-002	4.662968e-001	1.252282e-002	-8.755978e-001	2.119008e-002
804904.905	8.809848e-001	6.539648e-002	4.660442e-001	1.282947e-002	4.666954e-001	1.250153e-002	-8.754490e-001	2.163051e-002
814614.615	8.811684e-001	6.428918e-002	4.662152e-001	1.256127e-002	4.666406e-001	1.214609e-002	-8.757942e-001	2.158745e-002
824324.324	8.809241e-001	6.254395e-002	4.656982e-001	1.160253e-002	4.664204e-001	1.165769e-002	-8.759055e-001	2.094237e-002
834034.034	8.804833e-001	6.153021e-002	4.659497e-001	1.126016e-002	4.666369e-001	1.110723e-002	-8.750092e-001	2.209033e-002
843743.744	8.814229e-001	6.057195e-002	4.663358e-001	1.127971e-002	4.670499e-001	1.080965e-002	-8.759279e-001	2.152248e-002
853453.453	8.811629e-001	5.867002e-002	4.662226e-001	1.084342e-002	4.671097e-001	1.021327e-002	-8.761187e-001	2.213971e-002
863163.163	8.813262e-001	5.752530e-002	4.664086e-001	1.040794e-002	4.664817e-001	9.798569e-003	-8.748843e-001	2.219132e-002
872872.873	8.814482e-001	5.617277e-002	4.663184e-001	9.858115e-003	4.664541e-001	9.632507e-003	-8.751978e-001	2.273812e-002
882582.583	8.811345e-001	5.536354e-002	4.662651e-001	9.778697e-003	4.664139e-001	9.290144e-003	-8.751849e-001	2.322589e-002
892292.292	8.808081e-001	5.457758e-002	4.659409e-001	9.707621e-003	4.664607e-001	8.357677e-003	-8.753437e-001	2.276150e-002
902002.002	8.809387e-001	5.206724e-002	4.660242e-001	8.241097e-003	4.664448e-001	8.606526e-003	-8.748962e-001	2.273039e-002
911711.712	8.817071e-001	5.135785e-002	4.663138e-001	8.609021e-003	4.664894e-001	8.097707e-003	-8.745362e-001	2.259785e-002
921421.421	8.814003e-001	5.053006e-002	4.660116e-001	8.434499e-003	4.668828e-001	7.995801e-003	-8.747072e-001	2.287854e-002
931131.131	8.812648e-001	4.989048e-002	4.661451e-001	8.101765e-003	4.666385e-001	7.325612e-003	-8.755528e-001	2.291847e-002
940840.841	8.814942e-001	4.839283e-002	4.665651e-001	7.471802e-003	4.666956e-001	7.276989e-003	-8.751756e-001	2.388381e-002
950550.551	8.824156e-001	4.729529e-002	4.669481e-001	7.135686e-003	4.667524e-001	7.072254e-003	-8.755690e-001	2.344663e-002
960260.260	8.811736e-001	4.650756e-002	4.662415e-001	6.852555e-003	4.670233e-001	6.980174e-003	-8.758340e-001	2.330481e-002
969969.970	8.813725e-001	4.573764e-002	4.662823e-001	6.969857e-003	4.666015e-001	6.875102e-003	-8.755799e-001	2.318253e-002
979679.680	8.820823e-001	4.455344e-002	4.664052e-001	6.913071e-003	4.670620e-001	6.383094e-003	-8.752850e-001	2.375227e-002
989389.389	8.813227e-001	4.307410e-002	4.664692e-001	6.003769e-003	4.670620e-001	6.207268e-003	-8.752413e-001	2.358453e-002
999099.099	8.822544e-001	4.291829e-002	4.665359e-001	6.018298e-003	4.677184e-001	6.067712e-003	-8.753511e-001	2.334602e-002
1008808.809	8.821561e-001	4.126041e-002	4.663280e-001	5.353994e-003	4.671025e-001	5.601355e-003	-8.752668e-001	2.389001e-002
1018518.519	8.817104e-001	3.962886e-002	4.662417e-001	5.293989e-003	4.666322e-001	4.857946e-003	-8.741787e-001	2.459064e-002
1028228.228	8.814719e-001	3.902069e-002	4.661530e-001	5.128150e-003	4.668069e-001	4.289640e-003	-8.748550e-001	2.436530e-002
1037937.938	8.819539e-001	3.827651e-002	4.663625e-001	4.490738e-003	4.668483e-001	4.617069e-003	-8.745355e-001	2.425149e-002
1047647.648	8.824578e-001	3.703101e-002	4.663736e-001	4.429270e-003	4.668034e-001	4.095281e-003	-8.750390e-001	2.494237e-002
1057357.357	8.819664e-001	3.680206e-002	4.666062e-001	4.331410e-003	4.666378e-001	3.887703e-003	-8.747456e-001	2.512954e-002
1067067.067	8.821192e-001	3.622770e-002	4.664967e-001	3.931610e-003	4.669453e-001	3.364575e-003	-8.750449e-001	2.517205e-002
1076776.777	8.824384e-001	3.509692e-002	4.662543e-001	3.833062e-003	4.665152e-001	3.331782e-003	-8.746779e-001	2.481061e-002
1086486.486	8.824542e-001	3.359257e-002	4.666209e-001	3.169449e-003	4.667456e-001	3.298438e-003	-8.750120e-001	2.486976e-002
1096196.196	8.825822e-001	3.300550e-002	4.667941e-001	3.101353e-003	4.668297e-001	2.896899e-003	-8.752976e-001	2.521953e-002
1105905.906	8.819709e-001	3.230971e-002	4.666079e-001	3.370062e-003	4.665204e-001	2.521492e-003	-8.746460e-001	2.497676e-002
1115615.616	8.816748e-001	3.159705e-002	4.661270e-001	2.926484e-003	4.666334e-001	2.198539e-003	-8.745450e-001	2.538899e-002
1125325.325	8.818375e-001	3.124368e-002	4.660069e-001	2.868450e-003	4.668261e-001	1.836527e-003	-8.742886e-001	2.543582e-002
1135035.035	8.821665e-001	2.981340e-002	4.663962e-001	2.448619e-003	4.670634e-001	1.628369e-003	-8.738551e-001	2.516568e-002
1144744.745	8.818727e-001	2.915091e-002	4.666491e-001	1.489444e-003	4.665892e-001	1.950328e-003	-8.736565e-001	2.591734e-002
1154454.454	8.824481e-001	2.814475e-002	4.665995e-001	1.637252e-003	4.664723e-001	1.279066e-003	-8.740390e-001	2.623305e-002
1164164.164	8.826521e-001	2.785610e-002	4.671228e-001	1.532061e-003	4.667148e-001	8.605887e-004	-8.742209e-001	2.637746e-002
1173873.874	8.818872e-001	2.649159e-002	4.668584e-001	1.526607e-003	4.669949e-001	8.310284e-004	-8.743736e-001	2.651649e-002
1183583.584	8.823722e-001	2.548237e-002	4.665537e-001	1.121992e-003	4.664770e-001	2.098956e-004	-8.735496e-001	2.671721e-002
1193293.293	8.826564e-001	2.463827e-002	4.667836e-001	6.711279e-004	4.663390e-001	4.644549e-004	-8.735759e-001	2.647029e-002
1203003.003	8.828314e-001	2.414603e-002	4.672991e-001	5.766334e-004	4.668586e-001	4.657890e-005	-8.739433e-001	2.600866e-002
1212712.713	8.829078e-001	2.303997e-002	4.671681e-001	-3.734038e-005	4.669958e-001	-1.598929e-004	-8.747095e-001	2.606745e-002
1222422.422	8.827690e-001	2.272888e-002	4.666465e-001	-1.153840e-004	4.665735e-001	-1.970937e-004	-8.735046e-001	2.605176e-002
1232132.132	8.821642e-001	2.165216e-002	4.668464e-001	-4.094781e-004	4.668424e-001	-5.776806e-004	-8.740231e-001	2.607636e-002
1241841.842	8.826750e-001	2.108731e-002	4.671895e-001	-6.574228e-004	4.666912e-001	-1.046501e-003	-8.742804e-001	2.653054e-002
1251551.552	8.818198e-001	2.069674e-002	4.665294e-001	7.146527e-005	4.660144e-001	-1.876812e-003	-8.742311e-001	2.745305e-002
1261261.261	8.821234e-001	1.958154e-002	4.665354e-001	-8.740672e-004	4.660415e-001	-8.206775e-004	-8.739398e-001	2.730839e-002
1270970.971	8.825026e-001	1.881212e-002	4.670969e-001	-9.490798e-004	4.664126e-001	-1.730869e-003	-8.735409e-001	2.777744e-002
1280680.681	8.828343e-001	1.887473e-002	4.671897e-001	-6.149852e-004	4.669184e-001	-1.934170e-003	-8.742703e-001	2.702860e-002
1290390.390	8.829276e-001	1.745389e-002	4.671291e-001	-1.149892e-003	4.667674e-001	-1.854036e-003	-8.738612e-001	2.745318e-002
1300100.100	8.816855e-001	1.692984e-002	4.664761e-001	-1.497024e-003	4.668867e-001	-2.393363e-003	-8.732144e-001	2.768276e-002
1309809.810	8.824144e-001	1.648668e-002	4.669017e-001	-1.387808e-003	4.661962e-001	-2.101021e-003	-8.736403e-001	2.794111e-002
1319519.520	8.814938e-001	1.536998e-002	4.665882e-001	-2.015471e-003	4.665666e-001	-3.013047e-003	-8.733681e-001	2.819308e-002
1329229.229	8.822132e-001	1.439880e-002	4.667453e-001	-2.543384e-003	4.662953e-001	-2.801545e-003	-8.728312e-001	2.757807e-002
1338938.939	8.821894e-001	1.415114e-002	4.667914e-001	-2.464483e-003	4.661237e-001	-2.887409e-003	-8.730017e-001	2.792533e-002
1348648.649	8.823908e-001	1.418305e-002	4.668430e-001	-2.629620e-003	4.663713e-001	-3.617232e-003	-8.734338e-001	2.799002e-002
1358358.358	8.820060e-001	1.288114e-002	4.666449e-001	-2.635128e-003	4.664845e-001	-3.542523e-003	-8.732091e-001	2.850873e-002
1368068.068	8.825244e-001	1.249134e-002	4.671503e-001	-3.270497e-003	4.663560e-001	-3.396207e-003	-8.737786e-001	2.788273e-002
1377777.778	8.829883e-001	1.173147e-002	4.671535e-001	-3.436070e-003	4.659660e-001	-4.080012e-003	-8.725782e-001	2.842232e-002
1387487.487	8.826158e-001	1.118832e-002	4.665360e-001	-3.379949e-003	4.663991e-001	-4.163924e-003	-8.731853e-001	2.902631e-002
1397197.197	8.828504e-001	1.003219e-002	4.668545e-001	-3.920215e-003	4.662132e-001	-4.066323e-003	-8.732831e-001	2.916903e-002
1406906.907	8.821780e-001	9.854593e-003	4.671010e-001	-3.637666e-003	4.665962e-001	-4.580687e-003	-8.739037e-001	2.899591e-002
1416616.617	8.819591e-001	9.060310e-003	4.670041e-001	-3.960874e-003	4.664499e-001	-4.747061e-003	-8.733853e-001	2.905211e-002
1426326.326	8.820687e-001	8.821398e-003	4.667691e-001	-4.192102e-003	4.662567e-001	-4.580905e-003	-8.732023e-001	2.893185e-002
1436036.036	8.817724e-001	7.474102e-003	4.665957e-001	-4.809834e-003	4.663986e-001	-5.323238e-003	-8.734146e-001	2.955804e-002
1445745.746	8.824427e-001	7.229686e-003	4.666702e-001	-4.717542e-003	4.669096e-001	-5.313963e-003	-8.739174e-001	2.915861e-002
1455455.455	8.826417e-001	6.119701e-003	4.666374e-001	-5.175999e-003	4.660522e-001	-5.482562e-003	-8.728350e-001	2.988246e-002
1465165.165	8.826072e-001	5.573522e-003	4.667880e-001	-4.915144e-003	4.663916e-001	-5.446023e-003	-8.727202e-001	2.950453e-002
1474874.875	8.823054e-001	5.365740e-003	4.667027e-001	-5.133610e-003	4.668033e-001	-6.134939e-003	-8.733567e-001	2.936014e-002
1484584.585	8.815406e-001	4.403301e-003	4.661285e-001	-5.489373e-003	4.660159e-001	-5.950192e-003	-8.727497e-001	2.968772e-002
1494294.294	8.820503e-001	3.998568e-003	4.660189e-001	-5.652603e-003	4.658900e-001	-6.145002e-003	-8.724333e-001	2.985113e-002
1504004.004	8.820585e-001	4.085024e-003	4.663947e-001	-5.793732e-003	4.658716e-001	-6.087555e-003	-8.726922e-001	2.966425e-002
1513713.714	8.825390e-001	2.717240e-003	4.666885e-001	-6.141815e-003	4.659865e-001	-6.740309e-003	-8.723595e-001	3.048789e-002
1523423.423	8.821539e-001	2.810861e-003	4.663916e-001	-5.989859e-003	4.660158e-001	-6.853170e-003	-8.724980e-001	3.042589e-002
1533133.133	8.829950e-001	2.218846e-003	4.668864e-001	-6.009635e-003	4.664002e-001	-6.851367e-003	-8.732227e-001	3.109069e-002
1542842.843	8.822288e-001	9.889607e-004	4.666138e-001	-6.651900e-003	4.660180e-001	-7.287434e-003	-8.729144e-001	3.100350e-002
1552552.553	8.825234e-001	1.816393e-004	4.667157e-001	-6.931720e-003	4.659335e-001	-7.447550e-003	-8.726843e-001	3.105107e-002
1562262.262	8.822749e-001	2.054103e-004	4.666629e-001	-7.080071e-003	4.657444e-001	-7.089623e-003	-8.720912e-001	3.054488e-002
1571971.972	8.828076e-001	-7.700535e-004	4.670156e-001	-7.252770e-003	4.657076e-001	-7.623636e-003	-8.716277e-001	3.057442e-002
1581681.682	8.822328e-001	-1.334783e-003	4.667139e-001	-7.647917e-003	4.660810e-001	-8.020441e-003	-8.719853e-001	3.201533e-002
1591391.391	8.820555e-001	-1.464471e-003	4.665715e-001	-7.425695e-003	4.660994e-001	-7.762554e-003	-8.727910e-001	3.162460e-002
1601101.101	8.812702e-001	-2.460734e-003	4.661924e-001	-7.576688e-003	4.659902e-001	-7.995477e-003	-8.721994e-001	3.086250e-002
1610810.811	8.824655e-001	-2.671421e-003	4.669576e-001	-7.969423e-003	4.664147e-001	-8.601709e-003	-8.720507e-001	3.161734e-002
1620520.521	8.822474e-001	-2.851191e-003	4.667481e-001	-8.041698e-003	4.662516e-001	-8.694057e-003	-8.724251e-001	3.231345e-002
1630230.230	8.822132e-001	-3.373029e-003	4.666439e-001	-8.238700e-003	4.656821e-001	-9.000355e-003	-8.723857e-001	3.236917e-002
1639939.940	8.817033e-001	-4.995114e-003	4.663515e-001	-8.454333e-003	4.658520e-001	-9.093435e-003	-8.725932e-001	3.270605e-002
1649649.650	8.816464e-001	-4.617733e-003	4.662152e-001	-8.445324e-003	4.656033e-001	-8.752121e-003	-8.720670e-001	3.128972e-002
1659359.359	8.817162e-001	-5.475084e-003	4.662283e-001	-8.716717e-003	4.662226e-001	-8.791610e-003	-8.719506e-001	3.154741e-002
1669069.069	8.818520e-001	-5.843572e-003	4.663831e-001	-8.564170e-003	4.656151e-001	-9.374101e-003	-8.716413e-001	3.243617e-002
1678778.779	8.822633e-001	-6.097965e-003	4.665621e-001	-8.831967e-003	4.658987e-001	-9.690498e-003	-8.725060e-001	3.245114e-002
1688488.488	8.824341e-001	-6.632179e-003	4.665361e-001	-9.354511e-003	4.661966e-001	-1.009184e-002	-8.729733e-001	3.288838e-002
1698198.198	8.820728e-001	-6.648042e-003	4.665930e-001	-9.141809e-003	4.655384e-001	-9.668906e-003	-8.722312e-001	3.268132e-002
1707907.908	8.819431e-001	-7.223869e-003	4.662419e-001	-9.060599e-003	4.662781e-001	-1.050672e-002	-8.719913e-001	3.340705e-002
1717617.618	8.816788e-001	-8.081344e-003	4.661493e-001	-9.629809e-003	4.656167e-001	-1.022406e-002	-8.726837e-001	3.291078e-002
1727327.327	8.817827e-001	-8.873531e-003	4.663242e-001	-9.568916e-003	4.659513e-001	-1.064464e-002	-8.721405e-001	3.309742e-002
1737037.037	8.817639e-001	-9.786192e-003	4.663473e-001	-1.007806e-002	4.655937e-001	-1.007547e-002	-8.718906e-001	3.260572e-002
1746746.747	8.817163e-001	-9.796785e-003	4.665214e-001	-1.042301e-002	4.661820e-001	-1.101123e-002	-8.720018e-001	3.351443e-002
1756456.456	8.816356e-001	-9.929551e-003	4.662817e-001	-1.037753e-002	4.665423e-001	-1.096995e-002	-8.721320e-001	3.341278e-002
1766166.166	8.817406e-001	-1.174384e-002	4.660440e-001	-1.052476e-002	4.657260e-001	-1.186043e-002	-8.713072e-001	3.425724e-002
1775875.876	8.818595e-001	-1.123554e-002	4.662648e-001	-1.046341e-002	4.660835e-001	-1.167579e-002	-8.719377e-001	3.405245e-002
1785585.586	8.812506e-001	-1.152940e-002	4.663155e-001	-1.077098e-002	4.665317e-001	-1.218536e-002	-8.724421e-001	3.493813e-002
1795295.295	8.825110e-001	-1.172679e-002	4.668314e-001	-1.072146e-002	4.659406e-001	-1.202597e-002	-8.723588e-001	3.444899e-002
1805005.005	8.816730e-001	-1.321066e-002	4.665480e-001	-1.146165e-002	4.658630e-001	-1.193300e-002	-8.722675e-001	3.391386e-002
1814714.715	8.818202e-001	-1.307250e-002	4.661417e-001	-1.136318e-002	4.656383e-001	-1.189568e-002	-8.714606e-001	3.433042e-002
