!Keysight Technologies,E5061B,MY49709559,B.05.06
!Date: Thu Apr 07 18:53:31 2022
!Data & Calibration Information:
!Freq	S11:SOLT2(ON)	S21:SOLT2(ON)	S12:SOLT2(ON)	S22:SOLT2(ON)
# Hz S RI R 50
300000.000	9.796393e-001	2.539672e-001	-6.635594e-005	2.072199e-005	5.671232e-006	8.936894e-006	1.011351e+000	3.812832e-003
309709.710	9.796572e-001	2.441246e-001	-2.820869e-005	-4.452527e-005	2.209443e-007	-4.533292e-005	1.008206e+000	3.703032e-003
319419.419	9.795613e-001	2.356963e-001	-2.981505e-005	6.501490e-006	-3.411125e-005	-5.154846e-005	1.006688e+000	2.992799e-003
329129.129	9.805951e-001	2.271880e-001	-1.772642e-005	3.843405e-005	1.099627e-005	-3.780418e-005	1.005709e+000	3.511913e-003
338838.839	9.816998e-001	2.201532e-001	-1.818442e-005	-6.923021e-006	1.422750e-005	3.896288e-005	1.005229e+000	3.194394e-003
348548.549	9.825024e-001	2.128707e-001	4.530041e-005	-9.670623e-007	-2.309680e-005	-6.752525e-006	1.005248e+000	2.743961e-003
358258.258	9.840531e-001	2.068865e-001	-4.563718e-006	1.637968e-005	-1.237697e-006	4.932738e-005	1.004782e+000	2.465637e-003
367967.968	9.845782e-001	1.999559e-001	4.689299e-006	2.162752e-005	4.246440e-005	3.160889e-005	1.004320e+000	3.733776e-003
377677.678	9.853798e-001	1.940416e-001	-4.151787e-005	3.532193e-005	-4.064528e-005	3.079243e-006	1.004102e+000	3.486737e-003
387387.387	9.869115e-001	1.884384e-001	-9.801758e-006	-5.475481e-005	-3.670579e-005	2.233437e-005	1.003654e+000	2.956750e-003
397097.097	9.877849e-001	1.829991e-001	-3.502396e-005	-1.216221e-005	-1.781101e-005	2.822393e-005	1.003675e+000	2.763592e-003
406806.807	9.885678e-001	1.773429e-001	3.172649e-005	3.938996e-005	-1.930072e-005	-8.523020e-006	1.003867e+000	2.461173e-003
416516.517	9.884845e-001	1.731401e-001	-8.134053e-006	4.671151e-005	6.684704e-005	1.095627e-005	1.003386e+000	2.701564e-003
426226.226	9.895369e-001	1.687894e-001	1.475586e-005	3.173051e-005	-3.009993e-005	2.381570e-005	1.003679e+000	2.478216e-003
435935.936	9.900768e-001	1.631549e-001	1.390649e-005	-3.495208e-005	-4.486327e-005	3.458479e-005	1.003348e+000	2.515920e-003
445645.646	9.908940e-001	1.603555e-001	9.099697e-006	1.679447e-005	7.221377e-006	-4.262283e-005	1.002965e+000	2.700708e-003
455355.355	9.909761e-001	1.551865e-001	-4.499257e-005	-2.782096e-005	-6.249763e-005	2.671964e-005	1.002221e+000	2.384290e-003
465065.065	9.918774e-001	1.518244e-001	1.764168e-005	-2.775655e-005	-3.063916e-006	3.465410e-005	1.003247e+000	2.683278e-003
474774.775	9.924152e-001	1.482809e-001	3.509083e-005	-4.670415e-005	2.761988e-005	6.199468e-006	1.002501e+000	2.585933e-003
484484.484	9.934919e-001	1.443164e-001	-6.408572e-006	2.353451e-005	-1.492043e-005	-3.319161e-005	1.003044e+000	2.706439e-003
494194.194	9.938035e-001	1.406296e-001	2.332564e-005	-2.929620e-007	-2.279828e-005	2.025905e-005	1.003114e+000	2.950348e-003
503903.904	9.933230e-001	1.369244e-001	-2.898085e-006	1.052033e-005	3.330903e-006	-2.268148e-005	1.002584e+000	2.676008e-003
513613.614	9.940255e-001	1.343322e-001	5.703467e-006	3.760607e-005	6.372721e-006	-3.181928e-005	1.003319e+000	2.399609e-003
523323.323	9.944639e-001	1.310241e-001	2.747142e-005	1.210990e-005	-2.520217e-005	1.273205e-005	1.002705e+000	2.334582e-003
533033.033	9.951496e-001	1.279291e-001	4.476617e-005	1.508014e-005	2.062951e-006	2.088028e-005	1.002539e+000	2.743877e-003
542742.743	9.958160e-001	1.240136e-001	-4.336288e-005	3.418500e-006	-1.104565e-005	-1.827886e-005	1.003212e+000	1.978532e-003
552452.452	9.957229e-001	1.217807e-001	6.034134e-006	-1.992390e-005	2.041223e-005	-2.225551e-005	1.002325e+000	2.051468e-003
562162.162	9.961190e-001	1.181721e-001	-3.419168e-005	-3.800256e-005	6.749377e-006	-4.930627e-005	1.002502e+000	2.204571e-003
571871.872	9.959269e-001	1.161345e-001	-1.060942e-005	5.932566e-005	-2.424369e-005	-2.350521e-005	1.002199e+000	2.695063e-003
581581.582	9.965586e-001	1.134523e-001	7.934884e-005	3.218741e-005	3.387524e-005	-1.561861e-005	1.002464e+000	2.696787e-003
591291.291	9.967463e-001	1.108577e-001	-3.211340e-005	-1.185530e-005	3.132902e-005	2.522550e-006	1.002095e+000	2.888456e-003
601001.001	9.972645e-001	1.085445e-001	2.737652e-005	2.119886e-005	3.881381e-006	9.926782e-006	1.002644e+000	2.649323e-003
610710.711	9.969768e-001	1.055006e-001	8.784165e-006	3.947433e-005	-1.876920e-005	2.814390e-005	1.002300e+000	1.855466e-003
620420.420	9.966898e-001	1.036103e-001	-2.004582e-005	3.446824e-005	2.048660e-007	7.755518e-006	1.002705e+000	2.764920e-003
630130.130	9.973964e-001	1.009972e-001	-4.423362e-006	4.073003e-005	-1.348605e-005	3.026054e-005	1.002549e+000	2.886854e-003
639839.840	9.977363e-001	9.871105e-002	4.002050e-005	-3.890308e-006	1.897075e-005	2.286101e-005	1.001807e+000	2.214355e-003
649549.550	9.971277e-001	9.634232e-002	-1.024513e-005	2.316348e-005	4.139584e-005	1.996806e-005	1.002199e+000	2.138549e-003
659259.259	9.971662e-001	9.451822e-002	5.069966e-005	3.873632e-005	1.747078e-006	-3.914402e-005	1.002123e+000	2.417951e-003
668968.969	9.976299e-001	9.195483e-002	2.788623e-005	3.830077e-006	-6.965926e-005	-1.977316e-005	1.002706e+000	2.630970e-003
678678.679	9.970063e-001	9.047490e-002	-7.164850e-006	-4.085937e-005	3.027884e-006	2.080540e-005	1.002148e+000	2.109841e-003
688388.388	9.976119e-001	8.852897e-002	-1.448004e-005	4.199813e-005	5.307081e-005	7.622933e-007	1.002034e+000	2.152135e-003
698098.098	9.978780e-001	8.643908e-002	1.383041e-005	-4.944267e-005	2.208603e-005	1.160849e-005	1.001710e+000	2.438511e-003
707807.808	9.976177e-001	8.424261e-002	-2.279711e-005	-1.155131e-006	-2.145576e-005	-3.001673e-005	1.002139e+000	2.659275e-003
717517.518	9.982973e-001	8.358245e-002	1.112302e-005	-9.142705e-006	4.478180e-005	2.924522e-005	1.002271e+000	2.614868e-003
727227.227	9.980420e-001	8.100722e-002	-3.812493e-006	4.368091e-006	2.314563e-005	-3.462719e-005	1.001839e+000	1.712742e-003
736936.937	9.984476e-001	7.885342e-002	-1.212461e-005	-1.380960e-005	3.954700e-005	3.427121e-005	1.002712e+000	2.074270e-003
746646.647	9.980573e-001	7.714788e-002	4.037007e-005	-1.768404e-005	7.092206e-006	2.172312e-005	1.002479e+000	2.517025e-003
756356.356	9.981160e-001	7.536679e-002	1.006488e-005	-2.515183e-006	3.560197e-006	-2.825118e-005	1.002383e+000	2.272870e-003
766066.066	9.982936e-001	7.449287e-002	-1.900072e-006	-3.818572e-005	3.369957e-005	3.338272e-005	1.002151e+000	2.407996e-003
775775.776	9.987336e-001	7.297550e-002	-1.730735e-005	1.215998e-005	-2.944121e-005	8.712116e-006	1.002161e+000	2.299544e-003
785485.485	9.989023e-001	7.059251e-002	7.649751e-005	-1.373324e-005	2.068341e-005	-2.128475e-006	1.002599e+000	2.639197e-003
795195.195	9.988401e-001	6.987635e-002	-2.506546e-005	3.109284e-005	-1.090157e-005	-3.559660e-005	1.002600e+000	2.534891e-003
804904.905	9.993186e-001	6.816980e-002	4.603312e-006	1.082632e-005	-4.736935e-005	3.045525e-005	1.002853e+000	2.667402e-003
814614.615	9.991983e-001	6.656882e-002	5.177810e-006	1.526570e-005	2.004634e-005	-2.341305e-006	1.002142e+000	2.028738e-003
824324.324	9.987454e-001	6.500874e-002	1.552027e-005	3.269676e-005	4.268972e-005	-1.134661e-005	1.002266e+000	1.967848e-003
834034.034	9.988770e-001	6.372075e-002	1.408895e-005	2.525508e-005	-2.376167e-005	-2.349908e-005	1.002596e+000	2.409222e-003
843743.744	9.996848e-001	6.230849e-002	3.645982e-006	-2.852406e-005	2.669488e-005	3.802215e-005	1.002937e+000	2.330020e-003
853453.453	9.988198e-001	6.031625e-002	4.168057e-005	4.368253e-005	7.502624e-006	-8.988956e-006	1.002610e+000	2.539817e-003
863163.163	9.991187e-001	5.985915e-002	-1.185550e-005	-2.197120e-005	1.601898e-005	3.338218e-005	1.002879e+000	1.707186e-003
872872.873	9.991188e-001	5.814848e-002	-3.388479e-005	-2.478415e-005	3.536775e-005	-2.913424e-005	1.003120e+000	2.443013e-003
882582.583	9.998970e-001	5.602078e-002	-9.302979e-007	7.751887e-006	-1.808404e-005	2.517751e-005	1.002755e+000	2.048214e-003
892292.292	9.993421e-001	5.500085e-002	1.837180e-005	-1.142820e-005	1.012423e-005	1.306859e-005	1.002813e+000	2.020731e-003
902002.002	9.995224e-001	5.409385e-002	1.137897e-005	2.025421e-005	1.008378e-005	-4.964918e-005	1.002662e+000	2.057156e-003
911711.712	9.994866e-001	5.290432e-002	-1.350160e-005	3.670016e-005	2.729452e-005	7.224451e-006	1.002538e+000	2.235870e-003
921421.421	9.994706e-001	5.146367e-002	-1.283494e-005	1.627417e-005	4.471989e-005	1.999050e-005	1.002736e+000	2.107707e-003
931131.131	9.991160e-001	5.036858e-002	2.415933e-005	7.063930e-006	-1.960416e-005	-2.810462e-006	1.002590e+000	2.191068e-003
940840.841	9.993735e-001	4.940704e-002	-4.102644e-005	3.009607e-005	4.570414e-005	-5.270909e-005	1.003232e+000	2.213331e-003
950550.551	9.993147e-001	4.777431e-002	8.251456e-006	-2.983895e-005	2.520589e-005	5.421480e-006	1.002702e+000	1.604714e-003
960260.260	9.993404e-001	4.739042e-002	-3.029855e-005	5.416609e-005	1.221832e-005	-1.738660e-005	1.002380e+000	1.830665e-003
969969.970	9.986732e-001	4.569473e-002	-2.372877e-005	-3.228503e-005	1.072230e-005	2.731674e-005	1.003361e+000	2.010570e-003
979679.680	9.991853e-001	4.453711e-002	-5.111203e-006	-2.521951e-005	-1.999840e-005	1.213897e-005	1.002549e+000	2.056039e-003
989389.389	9.996662e-001	4.356522e-002	3.242250e-005	-3.446835e-005	3.159293e-006	-1.962102e-006	1.002596e+000	2.365341e-003
999099.099	9.991309e-001	4.226175e-002	-3.750812e-005	2.745249e-006	-2.574029e-006	2.711584e-005	1.002515e+000	1.585912e-003
1008808.809	9.992912e-001	4.098103e-002	1.378822e-005	5.198982e-006	-1.629860e-005	-2.951372e-005	1.002318e+000	1.906555e-003
1018518.519	9.990626e-001	4.059169e-002	3.345358e-005	3.508806e-005	3.435826e-006	1.621403e-005	1.003007e+000	1.851270e-003
1028228.228	9.991866e-001	3.971045e-002	-1.036708e-005	2.469616e-005	2.586272e-006	1.469563e-006	1.002433e+000	1.777926e-003
1037937.938	9.983848e-001	3.788354e-002	1.913547e-005	2.779290e-005	2.889848e-005	-4.837949e-005	1.002345e+000	2.378721e-003
1047647.648	9.995342e-001	3.668493e-002	-2.333802e-005	-6.109833e-005	3.421661e-005	1.224962e-005	1.003346e+000	1.336796e-003
1057357.357	9.994138e-001	3.574636e-002	-4.502854e-005	7.958007e-006	-5.081869e-005	3.670421e-005	1.003064e+000	1.779288e-003
1067067.067	9.989615e-001	3.502677e-002	1.133947e-005	-6.205822e-006	-3.277689e-005	-3.664128e-007	1.002449e+000	1.866087e-003
1076776.777	9.992814e-001	3.400111e-002	1.455904e-005	3.460137e-005	2.881876e-005	2.702110e-005	1.002605e+000	1.830914e-003
1086486.486	9.992485e-001	3.269584e-002	8.568871e-006	-4.022774e-005	9.028961e-007	-1.296565e-005	1.002932e+000	1.977234e-003
1096196.196	9.994582e-001	3.171524e-002	1.837819e-005	-4.592861e-005	2.767853e-005	1.333532e-005	1.003497e+000	2.165769e-003
1105905.906	9.994876e-001	3.119578e-002	3.837492e-006	2.769083e-005	-3.888133e-006	-1.691656e-005	1.002895e+000	2.452200e-003
1115615.616	9.992650e-001	3.035246e-002	5.254569e-006	-1.917449e-006	-1.055124e-005	-3.491058e-005	1.002492e+000	1.780603e-003
1125325.325	9.995265e-001	2.940730e-002	-1.063701e-005	1.644455e-005	-3.268381e-005	1.856982e-005	1.002880e+000	2.150688e-003
1135035.035	9.992422e-001	2.839163e-002	4.225510e-005	-2.395232e-005	1.405766e-005	-2.301802e-006	1.002665e+000	1.804295e-003
1144744.745	9.993307e-001	2.791363e-002	-4.309340e-006	3.733095e-005	3.730762e-006	-4.281080e-005	1.002804e+000	1.908476e-003
1154454.454	9.997894e-001	2.697148e-002	-9.571719e-006	-3.071550e-005	4.577133e-006	2.916021e-005	1.002881e+000	1.683107e-003
1164164.164	9.996009e-001	2.617627e-002	2.353470e-005	-1.790847e-005	2.310603e-005	1.033226e-006	1.002595e+000	1.689461e-003
1173873.874	9.997806e-001	2.540500e-002	-4.104336e-005	-1.892395e-005	-6.471235e-006	1.534247e-005	1.002736e+000	1.407599e-003
1183583.584	9.994403e-001	2.447880e-002	-2.455103e-005	4.166530e-005	-1.819105e-005	6.799050e-005	1.002471e+000	2.182689e-003
1193293.293	9.990371e-001	2.338378e-002	-2.129027e-005	1.546114e-005	-3.340930e-005	3.021631e-005	1.003173e+000	1.791518e-003
1203003.003	9.993855e-001	2.235929e-002	-2.099057e-005	1.815089e-005	-2.550726e-005	-2.152956e-005	1.002825e+000	1.529076e-003
1212712.713	9.987056e-001	2.199607e-002	-4.468438e-006	-1.839006e-005	1.435737e-005	-4.833877e-005	1.002903e+000	1.816643e-003
1222422.422	9.994215e-001	2.091504e-002	-7.126961e-006	-7.503739e-005	2.812036e-005	7.252196e-006	1.002849e+000	1.320340e-003
1232132.132	9.993819e-001	2.068991e-002	-9.685495e-006	8.001421e-006	3.725993e-005	2.150158e-006	1.002740e+000	1.501596e-003
1241841.842	9.996523e-001	1.989871e-002	3.942762e-005	-2.080703e-005	-2.726629e-005	-3.242990e-006	1.002363e+000	1.971483e-003
1251551.552	9.994386e-001	1.893261e-002	-3.375900e-005	1.585256e-005	-1.787268e-005	-1.836524e-007	1.003345e+000	1.588081e-003
1261261.261	9.993154e-001	1.747884e-002	1.504125e-005	3.274851e-005	-5.540096e-006	2.700077e-005	1.003179e+000	1.671227e-003
1270970.971	9.994374e-001	1.690732e-002	4.768527e-006	-6.675548e-005	4.329415e-005	1.820611e-005	1.003064e+000	1.604444e-003
1280680.681	9.994589e-001	1.621032e-002	1.751604e-005	7.842078e-006	-5.926586e-005	3.878519e-005	1.002537e+000	1.489385e-003
1290390.390	9.992977e-001	1.489167e-002	-3.463059e-005	-1.027885e-005	-2.173864e-005	-6.380487e-005	1.003225e+000	1.415105e-003
1300100.100	9.996550e-001	1.453250e-002	-2.199733e-005	3.666379e-005	5.925330e-006	3.240686e-005	1.002980e+000	1.720296e-003
1309809.810	9.993654e-001	1.393571e-002	9.087504e-006	-1.199409e-005	-3.570777e-005	-4.025980e-006	1.002997e+000	1.887514e-003
1319519.520	1.000030e+000	1.264625e-002	-1.834451e-005	-2.031032e-006	1.013516e-005	-2.053549e-005	1.002897e+000	1.953381e-003
1329229.229	9.995125e-001	1.256634e-002	-9.250863e-006	-1.178176e-005	-3.921544e-005	2.971303e-005	1.003214e+000	2.028973e-003
1338938.939	9.992762e-001	1.152126e-002	3.943936e-006	1.441983e-005	-3.304037e-005	2.796599e-005	1.002736e+000	7.424949e-004
1348648.649	9.989630e-001	1.079898e-002	-3.005406e-005	-2.031253e-005	6.830600e-006	2.421751e-005	1.002653e+000	1.623992e-003
1358358.358	9.994536e-001	9.941363e-003	2.523057e-005	1.143879e-005	4.355036e-006	2.090939e-005	1.002661e+000	1.879237e-003
1368068.068	9.990337e-001	8.851549e-003	-2.372089e-005	8.332849e-006	2.537489e-005	-8.714526e-006	1.003069e+000	1.734332e-003
1377777.778	9.996307e-001	8.397466e-003	6.338538e-006	1.294922e-005	-9.438378e-006	2.622642e-005	1.002743e+000	1.663810e-003
1387487.487	9.993367e-001	7.423616e-003	8.953678e-006	-8.223050e-005	9.767313e-006	-2.169898e-005	1.003532e+000	2.040514e-003
1397197.197	9.992154e-001	7.223693e-003	3.015051e-005	2.108226e-005	3.729035e-005	-7.899994e-006	1.002047e+000	1.686660e-003
1406906.907	9.988988e-001	6.679959e-003	2.072348e-005	-8.458563e-006	-1.635704e-005	-1.500913e-005	1.002669e+000	1.918900e-003
1416616.617	9.990289e-001	5.909126e-003	3.590703e-005	-3.373421e-006	3.333954e-005	-3.449918e-005	1.002552e+000	1.447283e-003
1426326.326	9.993691e-001	5.392698e-003	-2.361359e-005	7.817054e-005	1.380505e-005	-2.858749e-005	1.002509e+000	1.825262e-003
1436036.036	9.994667e-001	4.162161e-003	-1.910045e-005	3.062898e-005	2.159024e-005	-3.435992e-006	1.002507e+000	1.856287e-003
1445745.746	9.997805e-001	3.626374e-003	5.430598e-005	-1.609991e-005	-1.124876e-005	2.117937e-006	1.002338e+000	1.873964e-003
1455455.455	9.991183e-001	2.451704e-003	3.065608e-005	-2.647486e-005	8.364328e-006	1.215348e-005	1.002528e+000	1.539151e-003
1465165.165	9.996322e-001	2.133254e-003	-1.648874e-005	-6.172452e-006	-1.003246e-005	1.193939e-005	1.002436e+000	1.487026e-003
1474874.875	9.993021e-001	8.829299e-004	2.117123e-005	-8.298502e-006	-2.138477e-005	4.715478e-006	1.003340e+000	1.111085e-003
1484584.585	9.990433e-001	7.436269e-004	1.568035e-005	-1.532091e-005	-5.585941e-005	-2.841122e-005	1.003020e+000	1.962743e-003
1494294.294	9.991092e-001	-6.281964e-004	-2.625707e-005	-3.528163e-007	2.265493e-005	-4.626361e-005	1.003119e+000	2.036297e-003
1504004.004	9.992383e-001	-7.746295e-004	-7.822872e-007	-1.290677e-005	-2.859508e-005	3.070597e-005	1.002447e+000	1.838939e-003
1513713.714	9.987977e-001	-1.609605e-003	-2.435236e-006	-1.053760e-005	3.433098e-005	5.372447e-006	1.002176e+000	2.055096e-003
1523423.423	9.995657e-001	-2.544711e-003	-3.033554e-005	4.174680e-006	7.576265e-006	-5.158573e-006	1.001833e+000	1.765833e-003
1533133.133	9.992890e-001	-2.355076e-003	-8.782767e-006	1.983907e-006	-1.157217e-005	-2.880864e-005	1.002811e+000	1.721690e-003
1542842.843	9.991932e-001	-3.407236e-003	-2.729496e-005	-1.593566e-005	6.140241e-005	3.720284e-005	1.003433e+000	1.583223e-003
1552552.553	9.989177e-001	-4.260078e-003	-3.034363e-005	-1.176382e-005	-9.615815e-006	4.872200e-006	1.002850e+000	1.823761e-003
1562262.262	9.986723e-001	-4.569477e-003	1.432841e-005	-5.306565e-005	4.326895e-005	9.842726e-006	1.002841e+000	1.900454e-003
1571971.972	9.993506e-001	-4.749340e-003	-2.371906e-005	-1.015584e-006	-2.448148e-005	-2.023719e-005	1.002603e+000	1.669258e-003
1581681.682	9.993399e-001	-5.398183e-003	-1.475856e-005	1.985396e-005	-6.158621e-007	1.345546e-005	1.003254e+000	1.916738e-003
1591391.391	9.991355e-001	-6.336257e-003	1.634773e-005	-4.135681e-006	1.039618e-005	-1.298647e-005	1.003142e+000	1.324588e-003
1601101.101	9.988818e-001	-7.167752e-003	-4.043242e-006	1.682392e-005	-1.760258e-005	-3.352308e-005	1.002703e+000	1.456689e-003
1610810.811	9.988330e-001	-7.750526e-003	-1.488198e-005	-3.633228e-006	-1.164918e-005	-2.780475e-006	1.002987e+000	1.746053e-003
1620520.521	9.996311e-001	-8.606635e-003	-2.182185e-005	-3.174458e-005	-4.546493e-005	-3.454456e-005	1.003273e+000	1.834078e-003
1630230.230	9.991889e-001	-9.459644e-003	-1.329089e-005	-5.751859e-006	-5.750793e-006	2.269978e-005	1.003012e+000	1.721108e-003
1639939.940	9.991418e-001	-9.297306e-003	-2.089357e-005	-4.669808e-005	2.430615e-005	2.686468e-005	1.002501e+000	1.729533e-003
1649649.650	9.988310e-001	-1.061357e-002	-2.822251e-005	5.554049e-006	1.165381e-005	-2.100724e-006	1.002991e+000	1.368444e-003
1659359.359	9.991929e-001	-1.055730e-002	7.932277e-006	-5.611313e-006	-4.637590e-006	-4.188711e-006	1.002889e+000	1.988391e-003
1669069.069	9.990096e-001	-1.179387e-002	-4.078716e-005	-9.829280e-006	-2.203359e-005	6.736352e-005	1.003411e+000	1.848388e-003
1678778.779	9.986846e-001	-1.193701e-002	-1.503702e-005	-3.127546e-005	-5.298291e-006	6.399650e-005	1.002482e+000	1.162683e-003
1688488.488	9.983549e-001	-1.276876e-002	-2.796116e-007	-2.496057e-005	-2.763624e-006	-1.023226e-005	1.003070e+000	1.520362e-003
1698198.198	9.985851e-001	-1.342723e-002	-1.838839e-005	1.352502e-005	1.035148e-005	-1.850887e-005	1.002681e+000	1.684604e-003
1707907.908	9.986874e-001	-1.399387e-002	1.613181e-005	2.791327e-005	3.532645e-005	4.048261e-006	1.002913e+000	2.074865e-003
1717617.618	9.986040e-001	-1.392657e-002	-1.865039e-005	-1.023449e-005	2.387166e-006	9.953013e-006	1.002355e+000	1.641911e-003
1727327.327	9.989019e-001	-1.491571e-002	-2.903678e-005	-9.588180e-006	-3.844530e-005	-2.944608e-005	1.002709e+000	1.430247e-003
1737037.037	9.984809e-001	-1.588377e-002	-8.266711e-006	-3.904403e-005	8.302689e-005	-5.853696e-006	1.002693e+000	1.706843e-003
1746746.747	9.989000e-001	-1.608004e-002	-1.328324e-005	-6.257252e-005	1.934436e-005	2.184876e-005	1.003147e+000	2.001534e-003
1756456.456	9.981128e-001	-1.659129e-002	-2.360362e-005	-1.507433e-006	1.239181e-005	-8.122372e-006	1.003154e+000	1.647116e-003
1766166.166	9.986258e-001	-1.708134e-002	3.429049e-005	3.343627e-006	1.530628e-005	-4.766750e-005	1.002860e+000	1.558329e-003
1775875.876	9.980707e-001	-1.783241e-002	2.218477e-005	1.091910e-005	-4.503635e-005	-1.739566e-005	1.003498e+000	1.255323e-003
1785585.586	9.987635e-001	-1.786897e-002	2.969434e-005	2.981164e-005	2.884441e-005	2.727491e-006	1.002670e+000	1.290958e-003
1795295.295	9.981448e-001	-1.891324e-002	-2.807870e-006	1.543908e-005	-6.310748e-006	1.255695e-005	1.002347e+000	1.607625e-003
1805005.005	9.979771e-001	-1.903265e-002	8.237217e-006	5.179959e-006	3.987326e-005	1.330960e-005	1.003113e+000	1.884071e-003
1814714.715	9.983786e-001	-1.928530e-002	-1.357340e-005	-2.604556e-005	5.218765e-006	-1.564307e-005	1.002710e+000	1.615264e-003
