!Keysight Technologies,E5061B,MY49709559,B.05.06
!Date: Thu Apr 07 18:56:33 2022
!Data & Calibration Information:
!Freq	S11:SOLT2(ON)	S21:SOLT2(ON)	S12:SOLT2(ON)	S22:SOLT2(ON)
# Hz S RI R 50
300000.000	1.017125e+000	-5.617387e-003	-8.127230e-006	-1.173048e-005	-4.159419e-006	-3.066646e-005	-6.222478e-001	7.624601e-001
309709.710	1.013022e+000	-6.915762e-003	1.434126e-006	-1.082364e-005	1.814843e-005	2.278541e-005	-5.995675e-001	7.805576e-001
319419.419	1.012092e+000	-6.143268e-003	-2.941123e-005	1.391941e-005	-1.714066e-005	-2.183525e-006	-5.779198e-001	7.978083e-001
329129.129	1.010215e+000	-5.431512e-003	-8.045194e-006	1.925712e-005	2.006311e-005	9.106405e-006	-5.563681e-001	8.136296e-001
338838.839	1.009518e+000	-6.113979e-003	-2.497795e-005	4.877041e-006	2.447746e-006	-3.962302e-005	-5.332152e-001	8.284957e-001
348548.549	1.009083e+000	-5.886361e-003	-1.159037e-005	-2.984757e-006	-2.349917e-005	-1.980522e-005	-5.115652e-001	8.423430e-001
358258.258	1.009273e+000	-5.979053e-003	2.418320e-005	2.792716e-005	-1.436318e-005	-4.079796e-006	-4.876620e-001	8.561340e-001
367967.968	1.009000e+000	-5.683182e-003	-5.885960e-006	1.292470e-005	-8.003074e-006	-2.096582e-005	-4.654130e-001	8.683987e-001
377677.678	1.007767e+000	-6.072794e-003	-1.123515e-005	3.000982e-005	1.669600e-005	-7.675175e-006	-4.426932e-001	8.800915e-001
387387.387	1.007845e+000	-6.935511e-003	-1.584417e-005	-3.429728e-005	-2.052478e-005	-4.850401e-006	-4.191335e-001	8.916219e-001
397097.097	1.007212e+000	-6.332703e-003	-4.182640e-005	-4.051128e-006	9.088738e-007	-2.703584e-005	-3.961564e-001	9.016802e-001
406806.807	1.007212e+000	-6.171118e-003	1.737461e-005	4.600325e-005	-2.457428e-005	1.250668e-005	-3.733370e-001	9.111996e-001
416516.517	1.007035e+000	-6.475843e-003	1.464859e-005	2.828620e-005	-1.836446e-005	1.524244e-005	-3.493971e-001	9.201527e-001
426226.226	1.006903e+000	-6.246825e-003	1.605741e-005	-1.546910e-005	1.307507e-006	2.942594e-005	-3.263356e-001	9.287108e-001
435935.936	1.006693e+000	-6.456526e-003	7.680715e-006	1.620260e-005	-7.879022e-006	4.420370e-006	-3.033232e-001	9.362969e-001
445645.646	1.006424e+000	-6.233833e-003	3.758981e-005	2.865472e-005	-8.761183e-006	1.873006e-005	-2.792059e-001	9.431703e-001
455355.355	1.006302e+000	-5.993584e-003	2.601274e-005	1.810225e-005	9.291437e-006	2.644884e-005	-2.559884e-001	9.498808e-001
465065.065	1.006700e+000	-6.748339e-003	-2.380336e-005	-4.926515e-005	4.525158e-006	2.424125e-005	-2.324417e-001	9.562975e-001
474774.775	1.006235e+000	-6.249035e-003	1.185815e-005	-1.970429e-005	1.747309e-005	-7.003266e-006	-2.096213e-001	9.604208e-001
484484.484	1.005825e+000	-5.866422e-003	-5.902087e-005	1.483644e-005	-9.171001e-006	-1.205791e-005	-1.858796e-001	9.650354e-001
494194.194	1.006754e+000	-5.528659e-003	-2.323469e-005	-7.394928e-005	5.653029e-005	-1.382200e-005	-1.630212e-001	9.695415e-001
503903.904	1.006066e+000	-6.046293e-003	5.658269e-005	-1.584300e-005	-1.927997e-005	2.805332e-005	-1.397262e-001	9.723530e-001
513613.614	1.005892e+000	-6.051338e-003	-3.174002e-005	-1.941965e-005	-1.310634e-005	-5.935435e-007	-1.165616e-001	9.754590e-001
523323.323	1.006498e+000	-6.526803e-003	5.520748e-006	-9.090296e-006	2.061626e-005	-6.148027e-006	-9.339600e-002	9.782581e-001
533033.033	1.005899e+000	-6.736528e-003	8.971537e-006	-3.092583e-005	2.127996e-005	-1.252063e-005	-7.029614e-002	9.788046e-001
542742.743	1.006184e+000	-6.438825e-003	1.988468e-005	2.251698e-005	-6.738609e-006	-2.739315e-005	-4.788382e-002	9.800040e-001
552452.452	1.005699e+000	-5.975481e-003	6.206876e-006	-3.051417e-005	1.062159e-005	4.637173e-006	-2.590678e-002	9.805379e-001
562162.162	1.004901e+000	-5.516041e-003	1.092662e-005	-1.810104e-005	2.706671e-005	-4.493477e-006	-3.245876e-003	9.804746e-001
571871.872	1.005781e+000	-6.086424e-003	-2.914163e-005	4.078774e-005	1.804565e-005	2.890749e-005	1.786641e-002	9.797883e-001
581581.582	1.005362e+000	-5.827097e-003	2.467092e-005	-4.057668e-005	-5.489702e-006	-2.045177e-005	3.950744e-002	9.789464e-001
591291.291	1.005208e+000	-6.720191e-003	-3.702771e-005	5.234369e-005	2.585818e-005	-1.808661e-005	6.072560e-002	9.769681e-001
601001.001	1.005298e+000	-6.213928e-003	1.171049e-005	-9.603967e-006	-2.755062e-005	1.226878e-005	8.207959e-002	9.751552e-001
610710.711	1.005492e+000	-6.061673e-003	1.188370e-006	-9.565258e-006	-3.213865e-005	1.706017e-006	1.032948e-001	9.734247e-001
620420.420	1.004906e+000	-6.045874e-003	8.433012e-006	-2.448429e-005	2.158303e-006	-1.319072e-005	1.238380e-001	9.703444e-001
630130.130	1.005498e+000	-5.807833e-003	-1.810381e-005	-6.629655e-006	-3.248807e-006	6.711350e-005	1.442693e-001	9.664350e-001
639839.840	1.004879e+000	-6.678393e-003	4.091874e-007	2.160380e-006	1.015980e-005	-5.965050e-006	1.645568e-001	9.623927e-001
649549.550	1.004812e+000	-5.381494e-003	-1.041553e-005	-1.194441e-005	-2.452830e-005	-2.025519e-005	1.845394e-001	9.588807e-001
659259.259	1.005310e+000	-6.113545e-003	7.080709e-005	-1.699206e-005	-8.376531e-006	7.222041e-005	2.041528e-001	9.550980e-001
668968.969	1.004573e+000	-6.349814e-003	1.208672e-005	-2.009280e-005	9.963500e-006	1.564796e-005	2.233250e-001	9.497263e-001
678678.679	1.004298e+000	-5.290121e-003	1.959621e-005	3.691418e-005	-2.619370e-005	-1.981403e-005	2.425400e-001	9.449232e-001
688388.388	1.004572e+000	-5.733113e-003	2.453481e-005	-9.923510e-006	-4.049542e-005	-4.363583e-006	2.616677e-001	9.393363e-001
698098.098	1.004762e+000	-6.222838e-003	-3.067605e-005	2.251294e-006	-1.982861e-005	2.214527e-005	2.801719e-001	9.335055e-001
707807.808	1.004619e+000	-5.432195e-003	-1.424622e-005	-5.733877e-006	6.312750e-005	-4.180967e-005	2.979268e-001	9.278353e-001
717517.518	1.004476e+000	-6.063435e-003	5.328527e-006	2.165558e-005	3.913111e-005	-2.474630e-005	3.157742e-001	9.209622e-001
727227.227	1.004371e+000	-5.408551e-003	-1.539939e-006	-8.061839e-006	1.000456e-005	5.265487e-005	3.338773e-001	9.147030e-001
736936.937	1.004283e+000	-6.288803e-003	6.952075e-007	-3.647712e-005	1.770287e-005	-5.067760e-005	3.511168e-001	9.075892e-001
746646.647	1.004596e+000	-6.402595e-003	3.046469e-005	-1.357062e-005	-1.028236e-005	-3.008193e-005	3.674053e-001	9.001765e-001
756356.356	1.004368e+000	-5.923343e-003	-1.654761e-005	-9.955172e-006	1.496023e-006	-2.860610e-005	3.845970e-001	8.928454e-001
766066.066	1.003963e+000	-6.207136e-003	-4.065665e-005	-3.755485e-006	-1.022012e-005	-1.822180e-005	4.004495e-001	8.846066e-001
775775.776	1.003852e+000	-6.235466e-003	-3.598339e-006	-1.773531e-005	-3.084759e-005	1.096830e-005	4.168598e-001	8.774164e-001
785485.485	1.004565e+000	-5.956286e-003	2.261819e-005	-3.774831e-005	1.624818e-005	1.262995e-005	4.331954e-001	8.689864e-001
795195.195	1.004254e+000	-6.939487e-003	1.268313e-005	3.043012e-005	-4.832523e-006	3.156749e-005	4.487075e-001	8.597801e-001
804904.905	1.004495e+000	-5.917830e-003	1.509559e-005	-1.244545e-005	-1.448575e-005	-2.776963e-005	4.635793e-001	8.516188e-001
814614.615	1.004269e+000	-6.492713e-003	-3.394166e-006	-3.861075e-005	-9.925973e-006	1.596887e-005	4.785238e-001	8.429540e-001
824324.324	1.003849e+000	-6.203449e-003	-3.537120e-006	-1.806760e-005	5.449109e-006	3.005719e-006	4.933724e-001	8.340857e-001
834034.034	1.004321e+000	-5.923172e-003	1.085314e-006	-9.444883e-006	2.982708e-006	-3.817255e-005	5.075819e-001	8.247089e-001
843743.744	1.003837e+000	-5.574720e-003	4.528034e-005	5.118694e-005	3.991645e-006	-6.012083e-006	5.214287e-001	8.152038e-001
853453.453	1.004354e+000	-6.311055e-003	-4.864066e-005	2.615026e-006	-3.001223e-005	3.087381e-005	5.356559e-001	8.053868e-001
863163.163	1.003972e+000	-6.091646e-003	-1.840225e-005	-4.019176e-005	2.885222e-005	3.943206e-005	5.488250e-001	7.964044e-001
872872.873	1.003378e+000	-6.393120e-003	3.252159e-005	-4.241124e-006	3.787695e-005	-7.980243e-006	5.622504e-001	7.868316e-001
882582.583	1.003805e+000	-6.615884e-003	-6.713029e-005	7.344986e-006	-2.245607e-005	-5.434940e-005	5.754279e-001	7.770503e-001
892292.292	1.003364e+000	-5.428821e-003	-3.393820e-006	1.403272e-005	-4.036699e-006	7.010735e-006	5.879993e-001	7.661729e-001
902002.002	1.004029e+000	-6.541644e-003	-2.469211e-007	-2.515861e-005	-1.920700e-005	-6.707631e-006	6.001324e-001	7.556130e-001
911711.712	1.003589e+000	-5.856407e-003	-4.853234e-006	-2.352201e-005	-4.282726e-005	2.194397e-005	6.129586e-001	7.456788e-001
921421.421	1.003470e+000	-6.156442e-003	4.369526e-005	1.657887e-005	-4.762428e-005	-1.470120e-005	6.245959e-001	7.355422e-001
931131.131	1.003331e+000	-6.041532e-003	9.404477e-006	-3.677481e-005	2.817870e-005	1.388964e-006	6.360267e-001	7.248085e-001
940840.841	1.002862e+000	-5.644594e-003	-2.438374e-005	-1.865856e-005	-6.243214e-005	-2.063297e-005	6.469597e-001	7.146056e-001
950550.551	1.003471e+000	-5.873365e-003	-1.949852e-005	-1.377172e-005	4.410977e-005	-4.256734e-006	6.583246e-001	7.040554e-001
960260.260	1.003493e+000	-5.386665e-003	-3.794618e-005	-6.069642e-006	-4.559777e-005	-1.118101e-005	6.688870e-001	6.935814e-001
969969.970	1.002894e+000	-6.192473e-003	4.368658e-005	1.431061e-007	-5.874858e-006	-1.181594e-005	6.796557e-001	6.824650e-001
979679.680	1.003234e+000	-5.822133e-003	4.999019e-006	2.996129e-005	1.491676e-005	-6.954806e-006	6.896736e-001	6.714901e-001
989389.389	1.003289e+000	-5.643916e-003	-4.937836e-005	1.327231e-005	1.627277e-005	-1.119333e-005	6.998568e-001	6.604950e-001
999099.099	1.002962e+000	-5.414387e-003	3.262636e-006	-3.101548e-005	8.098885e-006	6.937706e-006	7.100844e-001	6.499905e-001
1008808.809	1.002957e+000	-5.903870e-003	9.138126e-006	-4.909590e-005	5.291198e-005	1.792567e-005	7.191671e-001	6.389139e-001
1018518.519	1.002779e+000	-5.098986e-003	-1.984808e-006	-8.448998e-006	3.131371e-005	3.149215e-005	7.282472e-001	6.281411e-001
1028228.228	1.003085e+000	-5.852749e-003	-9.835665e-006	-2.655586e-005	-2.780519e-005	-7.348030e-006	7.376199e-001	6.159458e-001
1037937.938	1.002457e+000	-5.737159e-003	-3.458786e-006	3.875882e-005	-1.417057e-005	7.858530e-006	7.460308e-001	6.049257e-001
1047647.648	1.003664e+000	-5.981676e-003	-1.675033e-005	-2.047234e-005	-5.782896e-006	-3.291108e-006	7.548514e-001	5.940745e-001
1057357.357	1.003766e+000	-6.221198e-003	4.913507e-005	-1.473795e-005	7.742157e-006	-2.307988e-005	7.631421e-001	5.822548e-001
1067067.067	1.002626e+000	-5.544902e-003	-1.548171e-005	-3.555263e-005	-1.636511e-005	-7.380752e-006	7.711339e-001	5.716175e-001
1076776.777	1.003099e+000	-5.412732e-003	-7.113637e-005	-3.246613e-005	-3.325575e-005	5.664116e-006	7.790635e-001	5.608014e-001
1086486.486	1.003627e+000	-5.786982e-003	2.795584e-005	2.170003e-005	-2.490246e-005	1.689686e-006	7.867270e-001	5.495109e-001
1096196.196	1.003213e+000	-5.544550e-003	1.371247e-005	6.336179e-006	2.197190e-005	-5.535800e-005	7.937339e-001	5.381124e-001
1105905.906	1.002982e+000	-6.096604e-003	1.402064e-005	-6.147304e-006	-4.592534e-005	3.240783e-006	8.019041e-001	5.266303e-001
1115615.616	1.003396e+000	-5.655352e-003	-1.341261e-005	2.061648e-006	2.456827e-005	-1.177225e-005	8.084907e-001	5.146068e-001
1125325.325	1.003011e+000	-5.380325e-003	-3.424421e-005	1.546186e-005	2.546843e-006	-2.737005e-005	8.153547e-001	5.036580e-001
1135035.035	1.002828e+000	-5.628150e-003	1.415976e-005	2.310253e-005	-1.846593e-005	1.820479e-006	8.219046e-001	4.920175e-001
1144744.745	1.003040e+000	-5.281417e-003	-5.944353e-006	-3.790102e-006	3.236993e-005	6.404178e-006	8.287477e-001	4.815703e-001
1154454.454	1.003072e+000	-5.839006e-003	9.870193e-007	-9.754274e-006	-2.662009e-005	-2.717505e-005	8.344835e-001	4.699303e-001
1164164.164	1.003082e+000	-5.126987e-003	4.851428e-005	-2.035754e-005	-2.557819e-007	6.358970e-006	8.409056e-001	4.583216e-001
1173873.874	1.003257e+000	-4.971682e-003	6.377914e-006	1.065068e-005	1.000555e-005	-5.510711e-005	8.463382e-001	4.476362e-001
1183583.584	1.002836e+000	-6.223390e-003	2.736795e-005	-1.085888e-005	-5.301774e-006	-1.307711e-005	8.512575e-001	4.355779e-001
1193293.293	1.002420e+000	-4.732089e-003	-8.187366e-006	-2.087795e-005	-2.848578e-005	-2.019695e-005	8.573229e-001	4.249825e-001
1203003.003	1.002377e+000	-5.163244e-003	4.963276e-005	4.463296e-005	-8.542628e-006	6.897629e-006	8.622111e-001	4.138289e-001
1212712.713	1.002531e+000	-5.296147e-003	-2.712327e-005	-1.532217e-006	-9.673984e-006	3.404181e-005	8.676554e-001	4.018775e-001
1222422.422	1.002130e+000	-5.457084e-003	-1.098846e-005	-1.223267e-005	-3.204032e-005	2.338791e-005	8.729301e-001	3.907102e-001
1232132.132	1.002416e+000	-5.811419e-003	3.298863e-005	-3.708789e-005	2.220972e-005	-2.705203e-005	8.769190e-001	3.797351e-001
1241841.842	1.002574e+000	-5.843673e-003	1.348289e-005	1.155982e-005	2.157879e-006	2.024442e-006	8.819448e-001	3.683520e-001
1251551.552	1.002774e+000	-5.728057e-003	2.670332e-005	3.156542e-005	-8.173384e-006	-1.227155e-006	8.856161e-001	3.569416e-001
1261261.261	1.002414e+000	-5.418351e-003	-3.458804e-005	1.160020e-005	2.785844e-005	2.859811e-005	8.903662e-001	3.468241e-001
1270970.971	1.002082e+000	-5.952951e-003	1.007128e-006	-2.736400e-005	4.261867e-005	4.170564e-005	8.937912e-001	3.356996e-001
1280680.681	1.003017e+000	-5.337465e-003	-1.209867e-005	-2.151862e-005	1.768768e-005	-1.521076e-005	8.979963e-001	3.242166e-001
1290390.390	1.002946e+000	-5.949179e-003	-3.378014e-005	1.278289e-005	3.684163e-005	8.147930e-005	9.012527e-001	3.130939e-001
1300100.100	1.002792e+000	-5.056705e-003	-4.495031e-005	8.847915e-006	-2.379156e-005	-1.523265e-005	9.046673e-001	3.023973e-001
1309809.810	1.002507e+000	-5.344986e-003	4.556536e-005	-8.927777e-007	8.798207e-006	3.031684e-005	9.088421e-001	2.911533e-001
1319519.520	1.002343e+000	-5.349015e-003	-2.333622e-005	2.628210e-005	1.979786e-005	-3.014808e-005	9.119267e-001	2.804741e-001
1329229.229	1.002191e+000	-5.707639e-003	-4.085922e-005	-6.483416e-006	-1.425776e-005	1.845436e-005	9.151375e-001	2.689243e-001
1338938.939	1.003242e+000	-5.551183e-003	4.217898e-005	-6.083435e-006	1.817954e-005	2.177827e-006	9.173921e-001	2.583788e-001
1348648.649	1.002907e+000	-5.591263e-003	-3.264347e-005	-7.872266e-006	-2.958144e-005	3.195654e-005	9.208156e-001	2.478534e-001
1358358.358	1.002286e+000	-5.048134e-003	1.527044e-005	1.258535e-005	5.591250e-006	1.751341e-005	9.233341e-001	2.369581e-001
1368068.068	1.002743e+000	-5.182628e-003	1.462403e-005	-8.227404e-006	-6.938427e-006	2.575921e-005	9.258021e-001	2.260940e-001
1377777.778	1.003160e+000	-5.746679e-003	-2.407006e-006	2.374446e-005	1.391867e-005	1.662772e-005	9.278882e-001	2.155342e-001
1387487.487	1.003069e+000	-5.555513e-003	-2.748428e-005	-5.749586e-006	5.734568e-005	-2.192617e-005	9.301444e-001	2.049855e-001
1397197.197	1.002760e+000	-6.019044e-003	-3.799270e-005	1.974069e-005	-3.761577e-005	4.431478e-005	9.324645e-001	1.943071e-001
1406906.907	1.002495e+000	-5.762070e-003	-4.259955e-005	-9.871200e-006	-1.644257e-005	-2.706175e-005	9.346470e-001	1.845947e-001
1416616.617	1.002238e+000	-5.670807e-003	-8.933151e-006	8.030013e-006	9.922693e-006	-2.529612e-005	9.359942e-001	1.732687e-001
1426326.326	1.002366e+000	-5.582162e-003	-1.090845e-005	6.731120e-006	1.501065e-005	-5.233467e-006	9.381018e-001	1.635490e-001
1436036.036	1.002554e+000	-5.876590e-003	1.313393e-005	-3.244419e-005	-2.006839e-005	2.980041e-005	9.391280e-001	1.525330e-001
1445745.746	1.002577e+000	-5.213274e-003	6.245729e-005	-1.010671e-005	-1.967539e-005	1.509389e-006	9.405176e-001	1.420663e-001
1455455.455	1.003052e+000	-5.604060e-003	1.598346e-005	-5.592760e-006	1.465095e-005	1.155790e-006	9.419473e-001	1.327173e-001
1465165.165	1.002840e+000	-6.124028e-003	4.661631e-005	-9.078785e-006	1.724311e-005	3.799971e-005	9.436138e-001	1.224641e-001
1474874.875	1.003047e+000	-6.687254e-003	-3.297540e-005	-5.093596e-005	4.724346e-005	-1.670893e-005	9.447501e-001	1.120859e-001
1484584.585	1.002472e+000	-5.422552e-003	7.549346e-006	-1.977126e-005	3.128446e-006	-4.117123e-005	9.458333e-001	1.026913e-001
1494294.294	1.002443e+000	-6.435621e-003	-1.943241e-006	-1.882863e-005	-2.912664e-005	1.784621e-005	9.463712e-001	9.206049e-002
1504004.004	1.002918e+000	-7.192717e-003	-3.308405e-005	4.119388e-005	1.497730e-005	5.425214e-007	9.473297e-001	8.279679e-002
1513713.714	1.002744e+000	-5.928564e-003	-1.835904e-005	-4.592537e-006	3.295707e-005	2.518277e-005	9.482687e-001	7.249611e-002
1523423.423	1.002217e+000	-6.337001e-003	-1.230167e-006	6.426153e-007	4.901397e-005	1.962341e-005	9.485672e-001	6.266616e-002
1533133.133	1.001891e+000	-6.276524e-003	-4.754298e-005	-4.238074e-006	-4.330373e-006	1.516028e-005	9.490556e-001	5.342265e-002
1542842.843	1.002359e+000	-6.544115e-003	-2.382955e-006	4.198628e-005	-2.372305e-005	8.789884e-006	9.492664e-001	4.295564e-002
1552552.553	1.002454e+000	-6.415475e-003	2.556531e-006	3.487514e-005	3.145441e-005	2.290014e-006	9.497027e-001	3.345736e-002
1562262.262	1.002690e+000	-5.799941e-003	5.575331e-006	1.021283e-005	-3.576124e-005	-7.285524e-006	9.495089e-001	2.423858e-002
1571971.972	1.002978e+000	-5.979152e-003	-2.898962e-005	-2.068522e-006	-1.586938e-005	-3.185821e-006	9.502885e-001	1.421725e-002
1581681.682	1.002843e+000	-5.851727e-003	5.230538e-005	-2.350864e-006	2.195379e-007	4.849578e-005	9.502076e-001	4.517741e-003
1591391.391	1.002252e+000	-6.289168e-003	5.437249e-005	-4.917928e-005	-6.768704e-006	1.813847e-006	9.496645e-001	-4.517570e-003
1601101.101	1.003025e+000	-5.459052e-003	2.041744e-005	-4.548319e-005	2.495284e-005	-4.596788e-005	9.496552e-001	-1.406368e-002
1610810.811	1.003485e+000	-6.534368e-003	-2.304668e-005	1.125136e-005	1.957420e-005	2.153581e-005	9.491251e-001	-2.292888e-002
1620520.521	1.002065e+000	-5.936227e-003	-5.126859e-005	-1.390295e-005	4.779841e-005	8.432036e-006	9.487738e-001	-3.213946e-002
1630230.230	1.002450e+000	-6.458280e-003	-1.252062e-005	5.290149e-006	-5.187692e-006	5.659285e-006	9.486274e-001	-4.119510e-002
1639939.940	1.002907e+000	-5.923035e-003	-1.580902e-005	-2.684821e-005	3.532163e-005	4.285151e-005	9.479849e-001	-5.089332e-002
1649649.650	1.001930e+000	-6.464818e-003	3.668670e-005	-5.717638e-006	3.403201e-007	-3.876361e-005	9.469150e-001	-5.962495e-002
1659359.359	1.002915e+000	-6.862510e-003	4.275082e-005	7.329630e-007	2.040506e-005	1.267354e-005	9.470101e-001	-6.820565e-002
1669069.069	1.002258e+000	-7.161226e-003	-2.192399e-005	1.694726e-005	-1.078068e-005	4.617993e-006	9.455199e-001	-7.780553e-002
1678778.779	1.002394e+000	-6.594766e-003	-5.321173e-006	2.048499e-005	-1.455352e-005	3.790328e-005	9.451349e-001	-8.629169e-002
1688488.488	1.002222e+000	-6.008928e-003	-3.522061e-005	3.106935e-005	-2.643757e-005	-1.705002e-005	9.443730e-001	-9.502120e-002
1698198.198	1.001856e+000	-6.033092e-003	2.471332e-006	1.850323e-005	8.104829e-006	2.068765e-005	9.429725e-001	-1.042702e-001
1707907.908	1.002231e+000	-6.080606e-003	-1.172150e-005	-8.828976e-006	-8.772917e-006	-1.276953e-005	9.421102e-001	-1.130225e-001
1717617.618	1.002720e+000	-6.194394e-003	4.078233e-005	-9.593597e-006	-1.592243e-005	-4.318315e-005	9.402510e-001	-1.207818e-001
1727327.327	1.002179e+000	-5.958708e-003	2.087475e-005	1.736074e-006	-9.775154e-007	1.507640e-005	9.398380e-001	-1.300209e-001
1737037.037	1.002173e+000	-5.932737e-003	-9.350933e-006	-5.699407e-005	-1.896409e-005	2.781262e-005	9.384266e-001	-1.387825e-001
1746746.747	1.001728e+000	-6.312641e-003	-6.542445e-005	8.620109e-008	2.698803e-006	4.472985e-005	9.368131e-001	-1.469292e-001
1756456.456	1.002271e+000	-6.074057e-003	-3.973386e-006	1.359055e-005	-1.549237e-005	-4.369724e-005	9.356058e-001	-1.550525e-001
1766166.166	1.002184e+000	-5.903623e-003	1.354555e-005	1.108073e-005	-3.177020e-005	1.888280e-005	9.338442e-001	-1.636685e-001
1775875.876	1.001744e+000	-6.035405e-003	1.389426e-005	-5.310733e-005	-1.508755e-005	4.508068e-005	9.324708e-001	-1.719746e-001
1785585.586	1.002475e+000	-5.961321e-003	2.855672e-005	2.268351e-005	2.803917e-005	2.496947e-005	9.309841e-001	-1.801362e-001
1795295.295	1.002200e+000	-6.295944e-003	-7.087865e-006	3.145184e-005	-3.270740e-005	4.742014e-006	9.296826e-001	-1.876745e-001
1805005.005	1.002126e+000	-6.650676e-003	-1.890556e-005	5.205831e-006	3.269423e-005	-7.196837e-005	9.271663e-001	-1.961447e-001
