!Keysight Technologies,E5061B,MY49709559,B.05.06
!Date: Thu Apr 07 18:42:45 2022
!Data & Calibration Information:
!Freq	S11:SOLT2(ON)	S21:SOLT2(ON)	S12:SOLT2(ON)	S22:SOLT2(ON)
# Hz S RI R 50
300000.000	-9.455800e-001	7.475999e-002	-6.785459e-005	4.479433e-005	3.007287e-005	-1.615787e-006	1.011983e+000	1.893765e-003
309709.710	-9.464547e-001	7.674826e-002	4.111354e-005	-3.161754e-005	-1.153268e-005	1.805920e-005	1.008682e+000	1.799320e-003
319419.419	-9.457878e-001	7.921765e-002	-8.100776e-006	-1.920583e-005	-2.786033e-008	6.476433e-005	1.007449e+000	2.077926e-003
329129.129	-9.459385e-001	8.079529e-002	-1.686313e-005	-4.113833e-005	2.703418e-006	-1.314475e-005	1.006622e+000	1.650928e-003
338838.839	-9.457240e-001	8.243552e-002	-9.721051e-006	2.362861e-005	2.222297e-005	2.660727e-005	1.006567e+000	1.504041e-003
348548.549	-9.452916e-001	8.452976e-002	-5.594217e-005	2.397056e-006	-7.079642e-006	2.629218e-005	1.004991e+000	1.221562e-003
358258.258	-9.447240e-001	8.633356e-002	4.984111e-005	-2.727662e-005	4.459266e-005	8.222307e-006	1.005917e+000	1.197358e-003
367967.968	-9.437208e-001	8.823509e-002	-5.656593e-005	-2.473797e-005	3.683799e-005	-2.223733e-005	1.005117e+000	1.293024e-003
377677.678	-9.430781e-001	8.967992e-002	3.295208e-005	-2.622873e-005	2.031997e-005	-3.324429e-005	1.004335e+000	1.886742e-003
387387.387	-9.422558e-001	9.143742e-002	2.454959e-005	-2.772574e-005	9.108321e-005	-2.476139e-005	1.004204e+000	7.877291e-004
397097.097	-9.423181e-001	9.347357e-002	-1.138721e-006	-1.945841e-005	-1.494086e-005	-5.419735e-005	1.002991e+000	1.199156e-003
406806.807	-9.412055e-001	9.519223e-002	-6.488923e-005	2.125404e-006	3.475663e-006	-2.939847e-005	1.003161e+000	1.718511e-003
416516.517	-9.405231e-001	9.751343e-002	-2.797323e-005	-5.743426e-005	7.511694e-006	1.762361e-005	1.003312e+000	1.657147e-003
426226.226	-9.397763e-001	9.828091e-002	5.503829e-005	-1.380429e-005	-3.263993e-006	-2.070156e-006	1.003060e+000	1.368570e-003
435935.936	-9.387286e-001	1.000166e-001	5.964980e-005	-8.064760e-006	-1.790901e-005	-1.720867e-005	1.003021e+000	1.545582e-003
445645.646	-9.382868e-001	1.024928e-001	-1.373677e-006	-2.952865e-005	-8.667121e-006	5.023538e-005	1.003311e+000	1.394006e-003
455355.355	-9.379810e-001	1.044473e-001	-1.129528e-005	-1.338725e-005	2.399314e-005	3.052052e-006	1.002554e+000	1.742096e-003
465065.065	-9.371898e-001	1.057748e-001	-3.624528e-005	2.874586e-005	-1.956380e-005	5.014731e-005	1.003285e+000	1.334671e-003
474774.775	-9.366341e-001	1.076533e-001	-2.220769e-005	3.082999e-005	-4.123123e-005	3.392453e-005	1.002937e+000	1.995735e-003
484484.484	-9.354250e-001	1.089895e-001	-4.406544e-005	-4.305825e-005	-1.517514e-005	7.399181e-005	1.002942e+000	1.070977e-003
494194.194	-9.347046e-001	1.101505e-001	-2.612655e-005	4.701765e-005	-1.296554e-006	2.591059e-005	1.002981e+000	1.634584e-003
503903.904	-9.343736e-001	1.116676e-001	1.052003e-005	3.755436e-006	-2.579573e-006	3.905537e-006	1.002715e+000	1.585870e-003
513613.614	-9.335967e-001	1.140036e-001	2.452640e-005	4.793319e-005	1.141595e-005	2.853509e-005	1.002731e+000	7.928161e-004
523323.323	-9.330238e-001	1.158509e-001	5.606682e-006	4.236231e-005	-3.151170e-005	1.831752e-005	1.002435e+000	1.854015e-003
533033.033	-9.323083e-001	1.168838e-001	-1.149656e-006	-2.846145e-005	5.022892e-006	-2.361751e-005	1.002257e+000	1.569194e-003
542742.743	-9.319229e-001	1.189185e-001	-3.323735e-005	-1.565633e-005	-5.297557e-005	6.291720e-005	1.003227e+000	3.207866e-004
552452.452	-9.317471e-001	1.200442e-001	3.522741e-006	1.276061e-005	-2.470899e-005	2.021218e-005	1.002773e+000	5.074920e-004
562162.162	-9.311996e-001	1.221394e-001	-3.006618e-005	-3.858529e-005	-3.958520e-006	4.725121e-005	1.002307e+000	8.673625e-004
571871.872	-9.298809e-001	1.230105e-001	-2.058249e-005	-1.907711e-005	2.212276e-005	4.256357e-005	1.002210e+000	1.388175e-003
581581.582	-9.296170e-001	1.255031e-001	-1.271626e-005	2.631832e-005	1.195655e-005	1.048837e-006	1.002417e+000	1.076468e-003
591291.291	-9.288272e-001	1.269178e-001	-2.032456e-005	2.027520e-005	5.437190e-005	2.024188e-005	1.002878e+000	1.726870e-003
601001.001	-9.284312e-001	1.285293e-001	-2.795053e-005	7.464109e-006	1.402381e-005	-5.298787e-006	1.003069e+000	1.932868e-003
610710.711	-9.274020e-001	1.300411e-001	4.369936e-006	-2.171340e-005	-1.842898e-005	-1.844484e-005	1.002598e+000	1.049455e-003
620420.420	-9.270340e-001	1.320512e-001	-1.025297e-005	-5.819386e-006	-3.070595e-005	-4.229392e-005	1.002338e+000	1.192206e-003
630130.130	-9.258001e-001	1.331634e-001	-1.257762e-005	3.659161e-005	-4.343291e-005	2.941763e-005	1.002495e+000	1.276782e-003
639839.840	-9.249627e-001	1.344547e-001	-2.418790e-005	9.162813e-006	-3.937322e-005	-6.577410e-006	1.002624e+000	1.410618e-003
649549.550	-9.250784e-001	1.364717e-001	2.324856e-005	-1.473268e-005	-1.607105e-006	4.937951e-006	1.002606e+000	7.634665e-004
659259.259	-9.240715e-001	1.381540e-001	1.937009e-005	1.656882e-006	1.615060e-006	-5.211154e-006	1.002579e+000	1.490487e-003
668968.969	-9.233301e-001	1.391883e-001	5.731326e-005	1.047987e-005	-1.539134e-005	4.435038e-005	1.002175e+000	7.765642e-004
678678.679	-9.226089e-001	1.407389e-001	-1.821583e-005	-1.745794e-005	-1.302291e-005	-2.805589e-005	1.002936e+000	1.096706e-003
688388.388	-9.224285e-001	1.421162e-001	-2.184480e-005	-5.711667e-005	-3.659076e-005	2.080237e-005	1.001717e+000	1.769190e-003
698098.098	-9.214881e-001	1.440891e-001	4.244704e-005	2.591040e-005	-1.881646e-005	4.447184e-005	1.002606e+000	1.489371e-003
707807.808	-9.206882e-001	1.449777e-001	-3.587412e-005	2.630652e-005	2.961777e-006	-2.367665e-005	1.002742e+000	1.077315e-003
717517.518	-9.201611e-001	1.462108e-001	-5.066796e-005	-1.609042e-007	1.828969e-005	-3.123372e-005	1.002482e+000	1.120290e-003
727227.227	-9.196017e-001	1.478257e-001	2.164932e-005	-2.233361e-005	9.535714e-006	3.012451e-005	1.001953e+000	1.383442e-003
736936.937	-9.191360e-001	1.497925e-001	2.315521e-005	-3.933508e-005	-4.770697e-005	-1.555921e-005	1.001760e+000	1.183453e-003
746646.647	-9.180253e-001	1.514709e-001	-3.272562e-005	4.667305e-005	-2.049391e-005	1.006019e-005	1.002443e+000	1.612961e-003
756356.356	-9.177683e-001	1.530848e-001	5.054033e-005	-1.706896e-005	4.083208e-005	-1.218097e-005	1.002069e+000	7.394598e-004
766066.066	-9.169136e-001	1.546459e-001	-5.165219e-006	4.245445e-005	7.449625e-006	-5.275658e-005	1.002575e+000	1.439414e-003
775775.776	-9.161097e-001	1.559477e-001	5.155426e-006	-2.276458e-005	-1.527212e-005	-1.480356e-006	1.002793e+000	1.824897e-003
785485.485	-9.157614e-001	1.567938e-001	5.926732e-007	-2.648519e-005	-2.271694e-005	5.052877e-005	1.002259e+000	1.350070e-003
795195.195	-9.156434e-001	1.582867e-001	2.685724e-005	-6.360911e-006	3.562171e-006	-1.023520e-005	1.002378e+000	1.345308e-003
804904.905	-9.143707e-001	1.603946e-001	-1.250493e-005	-1.612111e-005	-3.290741e-006	-2.522431e-005	1.002543e+000	9.830662e-004
814614.615	-9.135652e-001	1.617487e-001	-4.142428e-006	3.178989e-005	5.729927e-006	1.937740e-005	1.002731e+000	1.787795e-003
824324.324	-9.136312e-001	1.630709e-001	2.293366e-005	1.826502e-005	-1.104205e-005	-1.089040e-005	1.002774e+000	1.551765e-003
834034.034	-9.118736e-001	1.652502e-001	-9.257263e-006	-6.676588e-005	1.124801e-006	-1.912157e-005	1.001893e+000	1.032931e-003
843743.744	-9.117108e-001	1.666488e-001	-1.924381e-005	1.430122e-005	6.976250e-006	3.333774e-005	1.002965e+000	1.646754e-003
853453.453	-9.113121e-001	1.674931e-001	2.751709e-005	2.351100e-005	2.389699e-005	2.836463e-006	1.002164e+000	1.033567e-003
863163.163	-9.107993e-001	1.692856e-001	-4.064525e-005	-1.221048e-006	-1.542836e-005	4.676656e-006	1.002748e+000	1.292277e-003
872872.873	-9.103709e-001	1.705943e-001	5.060907e-005	-2.084558e-006	2.800758e-005	-1.236485e-005	1.002792e+000	9.400740e-004
882582.583	-9.097131e-001	1.718787e-001	-4.110621e-005	2.562026e-005	-1.529829e-005	-1.012662e-005	1.001573e+000	1.122170e-003
892292.292	-9.087941e-001	1.728064e-001	-2.412377e-005	1.167099e-005	2.915770e-005	-7.527793e-007	1.002483e+000	1.142790e-003
902002.002	-9.083608e-001	1.749090e-001	3.277016e-005	3.056088e-005	1.371829e-006	-3.442906e-005	1.001922e+000	1.156268e-003
911711.712	-9.074154e-001	1.761554e-001	3.666490e-006	1.671437e-005	1.947524e-005	1.160091e-005	1.002489e+000	1.252665e-003
921421.421	-9.068155e-001	1.776097e-001	1.249735e-005	-2.427685e-005	7.250946e-006	4.209274e-006	1.001947e+000	1.047664e-003
931131.131	-9.062976e-001	1.794090e-001	-3.184260e-005	1.307109e-006	-3.920282e-005	8.831822e-006	1.002026e+000	1.445022e-003
940840.841	-9.052235e-001	1.807368e-001	-3.215330e-005	-3.169588e-007	1.759071e-005	-4.787524e-005	1.002188e+000	1.047790e-003
950550.551	-9.047771e-001	1.822813e-001	-2.220973e-005	1.300093e-006	-4.263495e-007	-2.901964e-005	1.001702e+000	1.102349e-003
960260.260	-9.044345e-001	1.834028e-001	1.309676e-006	3.225204e-005	1.573848e-005	-1.359099e-005	1.002540e+000	5.027202e-004
969969.970	-9.038205e-001	1.849115e-001	-2.838227e-006	-4.319251e-006	2.253499e-005	-1.253873e-005	1.001962e+000	1.060927e-003
979679.680	-9.038057e-001	1.865552e-001	-2.319427e-006	1.561400e-006	-7.872514e-006	-2.040689e-005	1.002676e+000	1.311445e-003
989389.389	-9.026706e-001	1.883195e-001	3.096182e-005	2.574868e-005	1.538496e-005	-7.360984e-006	1.002580e+000	9.324375e-004
999099.099	-9.022193e-001	1.897884e-001	-1.386664e-006	2.756899e-005	-2.185265e-005	-5.112917e-005	1.002507e+000	8.965844e-004
1008808.809	-9.010129e-001	1.914561e-001	6.931876e-006	-1.282757e-005	2.958203e-005	-5.668587e-005	1.001867e+000	1.263120e-003
1018518.519	-9.004675e-001	1.925412e-001	-2.493574e-006	3.731045e-005	-6.573101e-005	-1.076293e-005	1.001978e+000	1.265495e-003
1028228.228	-8.998840e-001	1.939211e-001	-4.864025e-008	4.918872e-005	-7.111929e-005	-1.192001e-005	1.002190e+000	1.784382e-003
1037937.938	-8.996118e-001	1.942655e-001	-3.177178e-005	3.376013e-005	-4.762798e-005	1.754969e-005	1.002164e+000	9.775128e-004
1047647.648	-8.987205e-001	1.968064e-001	-8.931304e-006	3.615492e-006	2.809557e-005	-1.875804e-005	1.002718e+000	8.246892e-004
1057357.357	-8.981773e-001	1.985176e-001	-3.214284e-005	-1.901640e-005	-3.166090e-005	1.726957e-006	1.002931e+000	1.283481e-003
1067067.067	-8.966839e-001	2.003218e-001	-9.776848e-006	-2.748262e-005	-2.135140e-006	1.114320e-005	1.002189e+000	1.092401e-003
1076776.777	-8.971307e-001	2.012036e-001	-3.792536e-006	-3.129702e-005	3.210939e-006	-8.577644e-006	1.002405e+000	1.372250e-003
1086486.486	-8.958290e-001	2.022832e-001	2.311635e-005	-2.247098e-006	3.973148e-005	-4.459433e-005	1.001823e+000	1.409254e-003
1096196.196	-8.950807e-001	2.036843e-001	-2.159913e-005	-9.652009e-006	2.095703e-005	3.351803e-005	1.001905e+000	1.640120e-003
1105905.906	-8.949613e-001	2.055256e-001	-6.439332e-006	-2.095961e-005	-1.268516e-005	1.563650e-005	1.002829e+000	1.057703e-003
1115615.616	-8.939464e-001	2.066393e-001	-3.311658e-005	-2.234570e-005	1.146639e-005	8.474587e-006	1.002635e+000	1.399136e-003
1125325.325	-8.933767e-001	2.087957e-001	-9.201021e-006	4.745641e-006	4.309026e-006	1.488415e-005	1.002290e+000	1.307654e-003
1135035.035	-8.928343e-001	2.103376e-001	1.165413e-005	-7.080509e-006	1.644436e-005	-1.216631e-006	1.002545e+000	1.309325e-003
1144744.745	-8.918801e-001	2.111129e-001	8.730435e-006	-6.675422e-006	1.294116e-005	1.575551e-005	1.002074e+000	1.257080e-003
1154454.454	-8.915402e-001	2.118486e-001	1.432065e-006	-2.902728e-006	1.438703e-005	3.748155e-006	1.002552e+000	1.799925e-003
1164164.164	-8.908333e-001	2.132140e-001	8.463805e-006	3.555691e-005	-3.970022e-005	2.814139e-006	1.002234e+000	1.047756e-003
1173873.874	-8.899892e-001	2.151049e-001	-3.772548e-006	1.132694e-005	1.991122e-005	-1.395866e-005	1.003091e+000	1.165757e-003
1183583.584	-8.893164e-001	2.157828e-001	-2.252237e-005	1.519179e-005	-4.322064e-005	1.243744e-005	1.002204e+000	1.294209e-003
1193293.293	-8.892958e-001	2.177680e-001	-4.368718e-005	1.449217e-005	1.303003e-005	5.102886e-007	1.002426e+000	9.996678e-004
1203003.003	-8.885747e-001	2.180091e-001	-1.483503e-005	2.395221e-005	4.930400e-005	-3.636541e-005	1.002984e+000	1.369087e-003
1212712.713	-8.875678e-001	2.204242e-001	-2.384666e-005	1.305804e-005	2.703766e-006	-2.637552e-005	1.002430e+000	1.073579e-003
1222422.422	-8.871284e-001	2.212455e-001	2.339004e-005	-8.160424e-006	2.848536e-005	2.731865e-005	1.002441e+000	1.247821e-003
1232132.132	-8.863710e-001	2.224406e-001	-6.225603e-007	-1.354251e-005	1.042936e-005	-1.761323e-005	1.002336e+000	6.878119e-004
1241841.842	-8.857066e-001	2.240191e-001	-1.350609e-005	-1.314610e-005	-6.211491e-005	-9.346123e-006	1.002736e+000	1.183462e-003
1251551.552	-8.844521e-001	2.265284e-001	-4.379889e-005	-2.596415e-005	2.884536e-005	3.311653e-005	1.002687e+000	8.628807e-004
1261261.261	-8.835481e-001	2.278212e-001	-5.949517e-005	-3.669466e-005	-2.545101e-005	-1.463744e-005	1.002081e+000	9.086596e-004
1270970.971	-8.834283e-001	2.288259e-001	1.466537e-006	-2.058183e-005	-1.968583e-005	-3.183305e-005	1.002082e+000	1.088650e-003
1280680.681	-8.828369e-001	2.297549e-001	2.243525e-006	2.970109e-006	-2.776413e-006	-4.693695e-006	1.002201e+000	1.173920e-003
1290390.390	-8.820627e-001	2.315241e-001	1.225707e-005	-4.676494e-005	-2.402100e-005	1.005664e-005	1.002110e+000	1.279697e-003
1300100.100	-8.817880e-001	2.326466e-001	-3.000249e-005	2.958165e-005	5.738069e-005	-3.888604e-005	1.002527e+000	1.252476e-003
1309809.810	-8.812635e-001	2.342060e-001	-6.558410e-006	1.061209e-005	-4.895156e-006	-1.752037e-005	1.002240e+000	7.889068e-004
1319519.520	-8.803945e-001	2.352006e-001	-2.940738e-005	-2.140229e-005	1.204932e-005	-1.360663e-005	1.002315e+000	1.478230e-003
1329229.229	-8.795654e-001	2.363727e-001	-1.051268e-005	3.429788e-006	-9.611161e-006	-3.111719e-005	1.002519e+000	1.056629e-004
1338938.939	-8.795981e-001	2.379002e-001	5.060979e-006	1.356523e-005	-4.283625e-006	3.053658e-005	1.002169e+000	8.806845e-004
1348648.649	-8.787595e-001	2.393262e-001	-5.098758e-005	2.806382e-006	-4.016598e-005	-5.874951e-005	1.002139e+000	1.317836e-003
1358358.358	-8.773283e-001	2.407971e-001	2.501872e-005	-2.608259e-005	1.694804e-005	3.405069e-005	1.002264e+000	1.029109e-003
1368068.068	-8.773731e-001	2.423206e-001	-6.334039e-005	4.241090e-005	2.343162e-005	-3.678107e-005	1.002318e+000	1.206874e-003
1377777.778	-8.762720e-001	2.436581e-001	-3.359643e-006	-1.418403e-005	-2.047037e-005	-3.601069e-005	1.002354e+000	8.743724e-004
1387487.487	-8.757867e-001	2.442917e-001	-6.281128e-006	3.086357e-005	-5.297063e-005	2.450544e-005	1.002181e+000	1.390826e-003
1397197.197	-8.751121e-001	2.461640e-001	3.588819e-006	-5.809497e-006	-3.968228e-006	3.797032e-005	1.002250e+000	8.749093e-004
1406906.907	-8.748757e-001	2.469903e-001	2.687679e-005	5.991840e-005	3.114072e-005	2.111352e-005	1.002069e+000	9.867363e-004
1416616.617	-8.737751e-001	2.483503e-001	-1.043284e-005	-1.883706e-005	-8.740115e-006	-4.200602e-006	1.002203e+000	1.058937e-003
1426326.326	-8.734187e-001	2.495607e-001	-5.133342e-005	2.099366e-005	-3.797510e-006	6.073536e-007	1.002247e+000	1.025455e-003
1436036.036	-8.731427e-001	2.514418e-001	1.265527e-005	1.431952e-006	3.686727e-006	7.277871e-006	1.002375e+000	1.215026e-003
1445745.746	-8.720266e-001	2.524256e-001	-1.351504e-005	1.990799e-005	4.853343e-006	-2.020697e-005	1.002809e+000	1.198662e-003
1455455.455	-8.715186e-001	2.538440e-001	-1.250082e-005	-2.729828e-006	8.469618e-006	2.547630e-005	1.001746e+000	1.014521e-003
1465165.165	-8.703220e-001	2.554850e-001	3.198718e-005	4.521644e-006	-2.282697e-005	-2.533033e-005	1.002856e+000	1.048955e-003
1474874.875	-8.705941e-001	2.563653e-001	2.618698e-005	-1.564350e-005	-3.299035e-005	3.239329e-005	1.002500e+000	5.420425e-004
1484584.585	-8.698256e-001	2.577292e-001	2.625497e-005	-4.272089e-005	-5.423061e-005	1.235273e-005	1.002567e+000	1.675352e-003
1494294.294	-8.689203e-001	2.596153e-001	3.422948e-006	1.348841e-005	-3.558367e-006	1.119159e-005	1.002561e+000	1.091970e-003
1504004.004	-8.681781e-001	2.608789e-001	3.213499e-006	-1.234131e-005	5.603563e-006	2.075712e-005	1.002148e+000	6.745721e-004
1513713.714	-8.671717e-001	2.617927e-001	2.232641e-005	-4.359545e-006	1.093955e-005	-5.199429e-006	1.002049e+000	1.369955e-003
1523423.423	-8.667660e-001	2.633294e-001	-1.407378e-005	6.120809e-006	2.376292e-005	-5.019958e-006	1.002018e+000	8.849491e-004
1533133.133	-8.664546e-001	2.637228e-001	2.066830e-007	-3.371864e-005	2.291887e-005	-3.480200e-005	1.002479e+000	1.292277e-003
1542842.843	-8.651812e-001	2.657246e-001	5.996145e-007	1.261485e-005	1.698414e-006	-2.279700e-005	1.002979e+000	9.780371e-004
1552552.553	-8.649661e-001	2.672541e-001	3.253646e-005	1.444413e-005	-4.318814e-005	-2.890054e-005	1.002393e+000	1.560039e-003
1562262.262	-8.641717e-001	2.689009e-001	1.672790e-005	9.614186e-007	-2.412468e-005	1.972510e-005	1.002305e+000	1.061403e-003
1571971.972	-8.634054e-001	2.692360e-001	1.195553e-005	7.153360e-006	-8.089076e-007	5.092873e-005	1.002194e+000	1.509019e-003
1581681.682	-8.632723e-001	2.703542e-001	-1.589040e-005	-7.668287e-006	-2.291919e-005	1.605622e-005	1.002319e+000	9.836604e-004
1591391.391	-8.624346e-001	2.722163e-001	-8.488361e-006	3.867956e-005	7.615457e-006	-4.369217e-005	1.002357e+000	1.007450e-003
1601101.101	-8.614440e-001	2.736821e-001	-4.120958e-005	-3.673686e-005	-3.473591e-006	-1.859610e-005	1.002287e+000	6.252790e-004
1610810.811	-8.605146e-001	2.751190e-001	-2.909689e-005	1.486146e-005	-1.006063e-005	9.347957e-007	1.002024e+000	1.139028e-003
1620520.521	-8.599855e-001	2.757109e-001	2.622115e-005	-2.518372e-005	-1.932287e-005	-7.935956e-006	1.002692e+000	1.298308e-003
1630230.230	-8.594552e-001	2.772916e-001	-2.649172e-005	-3.083697e-005	-1.069080e-005	-2.436962e-005	1.002248e+000	1.283541e-003
1639939.940	-8.588776e-001	2.788775e-001	1.799579e-005	1.670788e-006	1.599118e-005	4.415493e-007	1.002667e+000	1.042370e-003
1649649.650	-8.580317e-001	2.802504e-001	-1.476365e-005	1.920851e-005	-2.164855e-006	-4.509747e-005	1.002296e+000	4.284111e-004
1659359.359	-8.575321e-001	2.815917e-001	-2.145456e-005	-2.791470e-005	-9.960302e-006	2.981652e-005	1.002185e+000	1.122275e-003
1669069.069	-8.570369e-001	2.826624e-001	1.277677e-005	-9.848006e-007	1.285523e-005	-5.778573e-005	1.001938e+000	9.835107e-004
1678778.779	-8.563460e-001	2.837364e-001	-2.364772e-005	-4.640415e-006	-3.685443e-005	-4.919409e-005	1.002280e+000	1.076543e-003
1688488.488	-8.555678e-001	2.848537e-001	1.068538e-005	1.550315e-005	3.466569e-005	-1.453974e-005	1.002549e+000	9.363508e-004
1698198.198	-8.548324e-001	2.865647e-001	-3.310178e-005	-2.259870e-006	2.402426e-005	-2.546244e-006	1.002139e+000	1.374907e-003
1707907.908	-8.541994e-001	2.878057e-001	8.324365e-007	-1.511968e-005	1.878331e-005	-4.218238e-005	1.001963e+000	1.354606e-003
1717617.618	-8.530480e-001	2.890479e-001	-2.215761e-006	-3.525344e-005	-2.423789e-005	4.273439e-005	1.002591e+000	1.645432e-003
1727327.327	-8.528565e-001	2.898418e-001	6.564435e-006	2.735444e-006	4.643253e-005	2.586221e-005	1.001955e+000	6.443947e-004
1737037.037	-8.515963e-001	2.915100e-001	-2.770637e-005	2.411998e-006	-2.183622e-005	3.765245e-005	1.001930e+000	8.304755e-004
1746746.747	-8.515463e-001	2.922689e-001	-2.330594e-006	3.902851e-005	3.486057e-005	2.272719e-006	1.002412e+000	1.205596e-003
1756456.456	-8.506059e-001	2.938016e-001	-1.990984e-005	-1.434873e-005	8.764608e-006	-2.126370e-005	1.002550e+000	1.821095e-003
1766166.166	-8.504555e-001	2.951831e-001	-2.031576e-006	-5.103562e-006	2.236790e-005	-4.922574e-005	1.002693e+000	1.473361e-003
1775875.876	-8.488910e-001	2.969722e-001	-1.018909e-005	3.089628e-005	-2.123854e-005	2.791856e-006	1.002434e+000	6.848650e-004
1785585.586	-8.482713e-001	2.974810e-001	-2.150383e-005	-2.620368e-005	-5.860608e-006	-3.379456e-005	1.002367e+000	7.867864e-004
1795295.295	-8.476495e-001	2.983105e-001	3.785869e-005	-2.884760e-005	-1.519449e-006	2.100844e-005	1.002470e+000	9.948174e-004
1805005.005	-8.472556e-001	3.002154e-001	9.428629e-006	2.977970e-005	6.840649e-006	2.275218e-005	1.002412e+000	8.823839e-004
